Time [s], Analyzer Name, Decoded Protocol Result
0.000000000000000,I2C,Setup Write to [0xC0] + ACK
0.000024375000000,I2C,0x03 + ACK
0.000049000000000,I2C,0xFF + ACK
0.000079000000000,I2C,Setup Write to [0xC0] + ACK
0.000103500000000,I2C,0xBB + ACK
0.000128125000000,I2C,0xC0 + ACK
0.000159125000000,I2C,Setup Write to [0xC0] + ACK
0.000183625000000,I2C,0x0F + ACK
0.000208125000000,I2C,0x00 + ACK
0.000232625000000,I2C,0x4F + ACK
0.000257250000000,I2C,0x80 + ACK
0.000281750000000,I2C,0x6F + ACK
0.000306250000000,I2C,0x80 + ACK
0.000330750000000,I2C,0x80 + ACK
0.000355250000000,I2C,0x80 + ACK
0.000379750000000,I2C,0x80 + ACK
0.000404375000000,I2C,0x80 + ACK
0.000428875000000,I2C,0xAA + ACK
0.000453375000000,I2C,0x00 + ACK
0.000477875000000,I2C,0x00 + ACK
0.000502375000000,I2C,0x19 + ACK
0.000526875000000,I2C,0x00 + ACK
0.000551500000000,I2C,0x0A + ACK
0.000575875000000,I2C,0xF5 + ACK
0.000600500000000,I2C,0x00 + ACK
0.000625000000000,I2C,0x00 + ACK
0.000649500000000,I2C,0x13 + ACK
0.000674000000000,I2C,0x04 + ACK
0.000698500000000,I2C,0xE2 + ACK
0.000723000000000,I2C,0x00 + ACK
0.000747625000000,I2C,0x0A + ACK
0.000772000000000,I2C,0xF5 + ACK
0.000796625000000,I2C,0x00 + ACK
0.000821125000000,I2C,0x03 + ACK
0.000845625000000,I2C,0x36 + ACK
0.000870125000000,I2C,0x00 + ACK
0.000894625000000,I2C,0x01 + ACK
0.000919125000000,I2C,0x0C + ACK
0.000943750000000,I2C,0x00 + ACK
0.000968125000000,I2C,0x00 + ACK
0.000992750000000,I2C,0x00 + ACK
0.001017250000000,I2C,0x00 + ACK
0.001041750000000,I2C,0x00 + ACK
0.001066250000000,I2C,0x00 + ACK
0.001090750000000,I2C,0x00 + ACK
0.001115250000000,I2C,0x00 + ACK
0.001139875000000,I2C,0x00 + ACK
0.001164375000000,I2C,0x00 + ACK
0.001188875000000,I2C,0x00 + ACK
0.001213375000000,I2C,0x00 + ACK
0.001237875000000,I2C,0x00 + ACK
0.001262375000000,I2C,0x00 + ACK
0.001287000000000,I2C,0x01 + ACK
0.001311500000000,I2C,0x0C + ACK
0.001336000000000,I2C,0x00 + ACK
0.001360500000000,I2C,0x00 + ACK
0.001385000000000,I2C,0x00 + ACK
0.001409500000000,I2C,0x00 + ACK
0.011445875000000,I2C,Setup Write to [0xC0] + ACK
0.011470375000000,I2C,0xB1 + ACK
0.011494875000000,I2C,0xAC + ACK
0.011524875000000,I2C,Setup Write to [0xC0] + ACK
0.011549375000000,I2C,0x03 + ACK
0.011574000000000,I2C,0xFA + ACK
0.055421125000000,I2C,Setup Write to [0xC0] + ACK
0.055445625000000,I2C,0x03 + ACK
0.055470250000000,I2C,0xFF + ACK
0.055500250000000,I2C,Setup Write to [0xC0] + ACK
0.055524750000000,I2C,0xBB + ACK
0.055549250000000,I2C,0xC0 + ACK
0.055580375000000,I2C,Setup Write to [0xC0] + ACK
0.055604875000000,I2C,0x0F + ACK
0.055629375000000,I2C,0x00 + ACK
0.055653875000000,I2C,0x4F + ACK
0.055678500000000,I2C,0x80 + ACK
0.055702875000000,I2C,0x6F + ACK
0.055727500000000,I2C,0x80 + ACK
0.055752000000000,I2C,0x80 + ACK
0.055776500000000,I2C,0x80 + ACK
0.055801000000000,I2C,0x80 + ACK
0.055825500000000,I2C,0x80 + ACK
0.055850000000000,I2C,0xAA + ACK
0.055874625000000,I2C,0x00 + ACK
0.055899000000000,I2C,0x00 + ACK
0.055923625000000,I2C,0x19 + ACK
0.055948125000000,I2C,0x00 + ACK
0.055972625000000,I2C,0x0D + ACK
0.055997125000000,I2C,0x1E + ACK
0.056021625000000,I2C,0x00 + ACK
0.056046125000000,I2C,0x00 + ACK
0.056070750000000,I2C,0x12 + ACK
0.056095250000000,I2C,0x04 + ACK
0.056119750000000,I2C,0xE2 + ACK
0.056144250000000,I2C,0x00 + ACK
0.056168750000000,I2C,0x0D + ACK
0.056193250000000,I2C,0x1E + ACK
0.056217875000000,I2C,0x00 + ACK
0.056242375000000,I2C,0x03 + ACK
0.056266875000000,I2C,0x04 + ACK
0.056291375000000,I2C,0x00 + ACK
0.056315875000000,I2C,0x01 + ACK
0.056340375000000,I2C,0x0C + ACK
0.056365000000000,I2C,0x00 + ACK
0.056389375000000,I2C,0x00 + ACK
0.056414000000000,I2C,0x00 + ACK
0.056438500000000,I2C,0x00 + ACK
0.056463000000000,I2C,0x00 + ACK
0.056487500000000,I2C,0x00 + ACK
0.056512000000000,I2C,0x00 + ACK
0.056536500000000,I2C,0x00 + ACK
0.056561125000000,I2C,0x00 + ACK
0.056585500000000,I2C,0x00 + ACK
0.056610125000000,I2C,0x00 + ACK
0.056634625000000,I2C,0x00 + ACK
0.056659125000000,I2C,0x00 + ACK
0.056683625000000,I2C,0x00 + ACK
0.056708125000000,I2C,0x01 + ACK
0.056732625000000,I2C,0x0C + ACK
0.056757250000000,I2C,0x00 + ACK
0.056781750000000,I2C,0x00 + ACK
0.056806250000000,I2C,0x00 + ACK
0.056830750000000,I2C,0x00 + ACK
0.056880375000000,I2C,Setup Write to [0xC0] + ACK
0.056904875000000,I2C,0xB1 + ACK
0.056929375000000,I2C,0xAC + ACK
0.056959500000000,I2C,Setup Write to [0xC0] + ACK
0.056984000000000,I2C,0x03 + ACK
0.057008500000000,I2C,0xFA + ACK
0.061809000000000,I2C,Setup Write to [0xC0] + ACK
0.061833500000000,I2C,0x03 + ACK
0.061858000000000,I2C,0xFF + ACK
0.061888000000000,I2C,Setup Write to [0xC0] + ACK
0.061912500000000,I2C,0xBB + ACK
0.061937125000000,I2C,0xC0 + ACK
0.061968250000000,I2C,Setup Write to [0xC0] + ACK
0.061992625000000,I2C,0x0F + ACK
0.062017250000000,I2C,0x00 + ACK
0.062041750000000,I2C,0x4F + ACK
0.062066250000000,I2C,0x80 + ACK
0.062090750000000,I2C,0x6F + ACK
0.062115250000000,I2C,0x80 + ACK
0.062139750000000,I2C,0x80 + ACK
0.062164375000000,I2C,0x80 + ACK
0.062188750000000,I2C,0x80 + ACK
0.062213375000000,I2C,0x80 + ACK
0.062237875000000,I2C,0xAA + ACK
0.062262375000000,I2C,0x00 + ACK
0.062286875000000,I2C,0x00 + ACK
0.062311375000000,I2C,0x19 + ACK
0.062335875000000,I2C,0x00 + ACK
0.062360500000000,I2C,0x0D + ACK
0.062385000000000,I2C,0x6B + ACK
0.062409500000000,I2C,0x00 + ACK
0.062434000000000,I2C,0x00 + ACK
0.062458500000000,I2C,0x0D + ACK
0.062483000000000,I2C,0x04 + ACK
0.062507500000000,I2C,0xE2 + ACK
0.062532125000000,I2C,0x00 + ACK
0.062556625000000,I2C,0x0D + ACK
0.062581125000000,I2C,0x6B + ACK
0.062605625000000,I2C,0x00 + ACK
0.062630125000000,I2C,0x02 + ACK
0.062654625000000,I2C,0x0A + ACK
0.062679125000000,I2C,0x00 + ACK
0.062703750000000,I2C,0x01 + ACK
0.062728250000000,I2C,0x0C + ACK
0.062752750000000,I2C,0x00 + ACK
0.062777250000000,I2C,0x00 + ACK
0.062801750000000,I2C,0x00 + ACK
0.062826250000000,I2C,0x00 + ACK
0.062850875000000,I2C,0x00 + ACK
0.062875250000000,I2C,0x00 + ACK
0.062899875000000,I2C,0x00 + ACK
0.062924375000000,I2C,0x00 + ACK
0.062948875000000,I2C,0x00 + ACK
0.062973375000000,I2C,0x00 + ACK
0.062997875000000,I2C,0x00 + ACK
0.063022375000000,I2C,0x00 + ACK
0.063047000000000,I2C,0x00 + ACK
0.063071375000000,I2C,0x00 + ACK
0.063096000000000,I2C,0x01 + ACK
0.063120500000000,I2C,0x0C + ACK
0.063145000000000,I2C,0x00 + ACK
0.063169500000000,I2C,0x00 + ACK
0.063194000000000,I2C,0x00 + ACK
0.063218500000000,I2C,0x00 + ACK
0.063268250000000,I2C,Setup Write to [0xC0] + ACK
0.063292625000000,I2C,0xB1 + ACK
0.063317250000000,I2C,0xAC + ACK
0.063347250000000,I2C,Setup Write to [0xC0] + ACK
0.063371750000000,I2C,0x03 + ACK
0.063396250000000,I2C,0xFA + ACK
0.068196750000000,I2C,Setup Write to [0xC0] + ACK
0.068221250000000,I2C,0x03 + ACK
0.068245750000000,I2C,0xFF + ACK
0.068275875000000,I2C,Setup Write to [0xC0] + ACK
0.068300375000000,I2C,0xBB + ACK
0.068324875000000,I2C,0xC0 + ACK
0.068356000000000,I2C,Setup Write to [0xC0] + ACK
0.068380500000000,I2C,0x0F + ACK
0.068405000000000,I2C,0x00 + ACK
0.068429500000000,I2C,0x4F + ACK
0.068454125000000,I2C,0x80 + ACK
0.068478500000000,I2C,0x6F + ACK
0.068503125000000,I2C,0x80 + ACK
0.068527625000000,I2C,0x80 + ACK
0.068552125000000,I2C,0x80 + ACK
0.068576625000000,I2C,0x80 + ACK
0.068601125000000,I2C,0x80 + ACK
0.068625625000000,I2C,0xAA + ACK
0.068650250000000,I2C,0x00 + ACK
0.068674625000000,I2C,0x00 + ACK
0.068699250000000,I2C,0x19 + ACK
0.068723750000000,I2C,0x00 + ACK
0.068748250000000,I2C,0x0D + ACK
0.068772750000000,I2C,0x7A + ACK
0.068797250000000,I2C,0x00 + ACK
0.068821750000000,I2C,0x00 + ACK
0.068846375000000,I2C,0x16 + ACK
0.068870875000000,I2C,0x04 + ACK
0.068895375000000,I2C,0xE2 + ACK
0.068919875000000,I2C,0x00 + ACK
0.068944375000000,I2C,0x0D + ACK
0.068968875000000,I2C,0x7A + ACK
0.068993500000000,I2C,0x00 + ACK
0.069018000000000,I2C,0x03 + ACK
0.069042500000000,I2C,0xCC + ACK
0.069067000000000,I2C,0x00 + ACK
0.069091500000000,I2C,0x01 + ACK
0.069116000000000,I2C,0x0C + ACK
0.069140625000000,I2C,0x00 + ACK
0.069165000000000,I2C,0x00 + ACK
0.069189625000000,I2C,0x00 + ACK
0.069214125000000,I2C,0x00 + ACK
0.069238625000000,I2C,0x00 + ACK
0.069263125000000,I2C,0x00 + ACK
0.069287625000000,I2C,0x00 + ACK
0.069312125000000,I2C,0x00 + ACK
0.069336750000000,I2C,0x00 + ACK
0.069361125000000,I2C,0x00 + ACK
0.069385750000000,I2C,0x00 + ACK
0.069410250000000,I2C,0x00 + ACK
0.069434750000000,I2C,0x00 + ACK
0.069459250000000,I2C,0x00 + ACK
0.069483750000000,I2C,0x01 + ACK
0.069508250000000,I2C,0x0C + ACK
0.069532875000000,I2C,0x00 + ACK
0.069557250000000,I2C,0x00 + ACK
0.069581875000000,I2C,0x00 + ACK
0.069606375000000,I2C,0x00 + ACK
0.069656000000000,I2C,Setup Write to [0xC0] + ACK
0.069680500000000,I2C,0xB1 + ACK
0.069705000000000,I2C,0xAC + ACK
0.069735125000000,I2C,Setup Write to [0xC0] + ACK
0.069759625000000,I2C,0x03 + ACK
0.069784125000000,I2C,0xFA + ACK
0.074585125000000,I2C,Setup Write to [0xC0] + ACK
0.074609625000000,I2C,0x03 + ACK
0.074634125000000,I2C,0xFF + ACK
0.074664125000000,I2C,Setup Write to [0xC0] + ACK
0.074688625000000,I2C,0xBB + ACK
0.074713250000000,I2C,0xC0 + ACK
0.074744375000000,I2C,Setup Write to [0xC0] + ACK
0.074768750000000,I2C,0x0F + ACK
0.074793375000000,I2C,0x00 + ACK
0.074817875000000,I2C,0x4F + ACK
0.074842375000000,I2C,0x80 + ACK
0.074866875000000,I2C,0x6F + ACK
0.074891375000000,I2C,0x80 + ACK
0.074915875000000,I2C,0x80 + ACK
0.074940500000000,I2C,0x80 + ACK
0.074964875000000,I2C,0x80 + ACK
0.074989500000000,I2C,0x80 + ACK
0.075014000000000,I2C,0xAA + ACK
0.075038500000000,I2C,0x00 + ACK
0.075063000000000,I2C,0x00 + ACK
0.075087500000000,I2C,0x19 + ACK
0.075112000000000,I2C,0x00 + ACK
0.075136625000000,I2C,0x0A + ACK
0.075161125000000,I2C,0xF5 + ACK
0.075185625000000,I2C,0x00 + ACK
0.075210125000000,I2C,0x00 + ACK
0.075234625000000,I2C,0x13 + ACK
0.075259125000000,I2C,0x04 + ACK
0.075283625000000,I2C,0xE2 + ACK
0.075308250000000,I2C,0x00 + ACK
0.075332750000000,I2C,0x0A + ACK
0.075357250000000,I2C,0xF5 + ACK
0.075381750000000,I2C,0x00 + ACK
0.075406250000000,I2C,0x03 + ACK
0.075430750000000,I2C,0x36 + ACK
0.075455250000000,I2C,0x00 + ACK
0.075479875000000,I2C,0x01 + ACK
0.075504375000000,I2C,0x0C + ACK
0.075528875000000,I2C,0x00 + ACK
0.075553375000000,I2C,0x00 + ACK
0.075577875000000,I2C,0x00 + ACK
0.075602375000000,I2C,0x00 + ACK
0.075627000000000,I2C,0x00 + ACK
0.075651375000000,I2C,0x00 + ACK
0.075676000000000,I2C,0x00 + ACK
0.075700500000000,I2C,0x00 + ACK
0.075725000000000,I2C,0x00 + ACK
0.075749500000000,I2C,0x00 + ACK
0.075774000000000,I2C,0x00 + ACK
0.075798500000000,I2C,0x00 + ACK
0.075823125000000,I2C,0x00 + ACK
0.075847500000000,I2C,0x00 + ACK
0.075872125000000,I2C,0x01 + ACK
0.075896625000000,I2C,0x0C + ACK
0.075921125000000,I2C,0x00 + ACK
0.075945625000000,I2C,0x00 + ACK
0.075970125000000,I2C,0x00 + ACK
0.075994625000000,I2C,0x00 + ACK
0.076044125000000,I2C,Setup Write to [0xC0] + ACK
0.076068625000000,I2C,0xB1 + ACK
0.076093125000000,I2C,0xAC + ACK
0.076123250000000,I2C,Setup Write to [0xC0] + ACK
0.076147750000000,I2C,0x03 + ACK
0.076172250000000,I2C,0xFA + ACK
0.080972375000000,I2C,Setup Write to [0xC0] + ACK
0.080996875000000,I2C,0x03 + ACK
0.081021375000000,I2C,0xFF + ACK
0.081051500000000,I2C,Setup Write to [0xC0] + ACK
0.081076000000000,I2C,0xBB + ACK
0.081100500000000,I2C,0xC0 + ACK
0.081131625000000,I2C,Setup Write to [0xC0] + ACK
0.081156125000000,I2C,0x0F + ACK
0.081180625000000,I2C,0x00 + ACK
0.081205125000000,I2C,0x4F + ACK
0.081229750000000,I2C,0x80 + ACK
0.081254125000000,I2C,0x6F + ACK
0.081278750000000,I2C,0x80 + ACK
0.081303250000000,I2C,0x80 + ACK
0.081327750000000,I2C,0x80 + ACK
0.081352250000000,I2C,0x80 + ACK
0.081376750000000,I2C,0x80 + ACK
0.081401250000000,I2C,0xAA + ACK
0.081425875000000,I2C,0x00 + ACK
0.081450250000000,I2C,0x00 + ACK
0.081474875000000,I2C,0x19 + ACK
0.081499375000000,I2C,0x00 + ACK
0.081523875000000,I2C,0x0D + ACK
0.081548375000000,I2C,0x1E + ACK
0.081572875000000,I2C,0x00 + ACK
0.081597375000000,I2C,0x00 + ACK
0.081622000000000,I2C,0x12 + ACK
0.081646500000000,I2C,0x04 + ACK
0.081671000000000,I2C,0xE2 + ACK
0.081695500000000,I2C,0x00 + ACK
0.081720000000000,I2C,0x0D + ACK
0.081744500000000,I2C,0x1E + ACK
0.081769125000000,I2C,0x00 + ACK
0.081793625000000,I2C,0x03 + ACK
0.081818125000000,I2C,0x04 + ACK
0.081842625000000,I2C,0x00 + ACK
0.081867125000000,I2C,0x01 + ACK
0.081891625000000,I2C,0x0C + ACK
0.081916250000000,I2C,0x00 + ACK
0.081940625000000,I2C,0x00 + ACK
0.081965250000000,I2C,0x00 + ACK
0.081989750000000,I2C,0x00 + ACK
0.082014250000000,I2C,0x00 + ACK
0.082038750000000,I2C,0x00 + ACK
0.082063250000000,I2C,0x00 + ACK
0.082087750000000,I2C,0x00 + ACK
0.082112375000000,I2C,0x00 + ACK
0.082136750000000,I2C,0x00 + ACK
0.082161375000000,I2C,0x00 + ACK
0.082185875000000,I2C,0x00 + ACK
0.082210375000000,I2C,0x00 + ACK
0.082234875000000,I2C,0x00 + ACK
0.082259375000000,I2C,0x01 + ACK
0.082283875000000,I2C,0x0C + ACK
0.082308500000000,I2C,0x00 + ACK
0.082332875000000,I2C,0x00 + ACK
0.082357500000000,I2C,0x00 + ACK
0.082382000000000,I2C,0x00 + ACK
0.082431625000000,I2C,Setup Write to [0xC0] + ACK
0.082456125000000,I2C,0xB1 + ACK
0.082480625000000,I2C,0xAC + ACK
0.082510750000000,I2C,Setup Write to [0xC0] + ACK
0.082535250000000,I2C,0x03 + ACK
0.082559750000000,I2C,0xFA + ACK
0.087360625000000,I2C,Setup Write to [0xC0] + ACK
0.087385000000000,I2C,0x03 + ACK
0.087409625000000,I2C,0xFF + ACK
0.087439625000000,I2C,Setup Write to [0xC0] + ACK
0.087464125000000,I2C,0xBB + ACK
0.087488625000000,I2C,0xC0 + ACK
0.087519750000000,I2C,Setup Write to [0xC0] + ACK
0.087544250000000,I2C,0x0F + ACK
0.087568750000000,I2C,0x00 + ACK
0.087593250000000,I2C,0x4F + ACK
0.087617875000000,I2C,0x80 + ACK
0.087642250000000,I2C,0x6F + ACK
0.087666875000000,I2C,0x80 + ACK
0.087691375000000,I2C,0x80 + ACK
0.087715875000000,I2C,0x80 + ACK
0.087740375000000,I2C,0x80 + ACK
0.087764875000000,I2C,0x80 + ACK
0.087789375000000,I2C,0xAA + ACK
0.087814000000000,I2C,0x00 + ACK
0.087838500000000,I2C,0x00 + ACK
0.087863000000000,I2C,0x19 + ACK
0.087887500000000,I2C,0x00 + ACK
0.087912000000000,I2C,0x0D + ACK
0.087936500000000,I2C,0x6B + ACK
0.087961125000000,I2C,0x00 + ACK
0.087985625000000,I2C,0x00 + ACK
0.088010125000000,I2C,0x0D + ACK
0.088034625000000,I2C,0x04 + ACK
0.088059125000000,I2C,0xE2 + ACK
0.088083625000000,I2C,0x00 + ACK
0.088108250000000,I2C,0x0D + ACK
0.088132625000000,I2C,0x6B + ACK
0.088157250000000,I2C,0x00 + ACK
0.088181750000000,I2C,0x02 + ACK
0.088206250000000,I2C,0x0A + ACK
0.088230750000000,I2C,0x00 + ACK
0.088255250000000,I2C,0x01 + ACK
0.088279750000000,I2C,0x0C + ACK
0.088304375000000,I2C,0x00 + ACK
0.088328750000000,I2C,0x00 + ACK
0.088353375000000,I2C,0x00 + ACK
0.088377875000000,I2C,0x00 + ACK
0.088402375000000,I2C,0x00 + ACK
0.088426875000000,I2C,0x00 + ACK
0.088451375000000,I2C,0x00 + ACK
0.088475875000000,I2C,0x00 + ACK
0.088500500000000,I2C,0x00 + ACK
0.088524875000000,I2C,0x00 + ACK
0.088549500000000,I2C,0x00 + ACK
0.088574000000000,I2C,0x00 + ACK
0.088598500000000,I2C,0x00 + ACK
0.088623000000000,I2C,0x00 + ACK
0.088647500000000,I2C,0x01 + ACK
0.088672000000000,I2C,0x0C + ACK
0.088696625000000,I2C,0x00 + ACK
0.088721125000000,I2C,0x00 + ACK
0.088745625000000,I2C,0x00 + ACK
0.088770125000000,I2C,0x00 + ACK
0.088819750000000,I2C,Setup Write to [0xC0] + ACK
0.088844250000000,I2C,0xB1 + ACK
0.088868750000000,I2C,0xAC + ACK
0.088898875000000,I2C,Setup Write to [0xC0] + ACK
0.088923375000000,I2C,0x03 + ACK
0.088947875000000,I2C,0xFA + ACK
0.093748375000000,I2C,Setup Write to [0xC0] + ACK
0.093772875000000,I2C,0x03 + ACK
0.093797375000000,I2C,0xFF + ACK
0.093827500000000,I2C,Setup Write to [0xC0] + ACK
0.093852000000000,I2C,0xBB + ACK
0.093876500000000,I2C,0xC0 + ACK
0.093907625000000,I2C,Setup Write to [0xC0] + ACK
0.093932000000000,I2C,0x0F + ACK
0.093956625000000,I2C,0x00 + ACK
0.093981125000000,I2C,0x4F + ACK
0.094005625000000,I2C,0x80 + ACK
0.094030125000000,I2C,0x6F + ACK
0.094054625000000,I2C,0x80 + ACK
0.094079125000000,I2C,0x80 + ACK
0.094103750000000,I2C,0x80 + ACK
0.094128250000000,I2C,0x80 + ACK
0.094152750000000,I2C,0x80 + ACK
0.094177250000000,I2C,0xAA + ACK
0.094201750000000,I2C,0x00 + ACK
0.094226250000000,I2C,0x00 + ACK
0.094250750000000,I2C,0x19 + ACK
0.094275375000000,I2C,0x00 + ACK
0.094299875000000,I2C,0x0D + ACK
0.094324375000000,I2C,0x7A + ACK
0.094348875000000,I2C,0x00 + ACK
0.094373375000000,I2C,0x00 + ACK
0.094397875000000,I2C,0x16 + ACK
0.094422375000000,I2C,0x04 + ACK
0.094447000000000,I2C,0xE2 + ACK
0.094471500000000,I2C,0x00 + ACK
0.094496000000000,I2C,0x0D + ACK
0.094520500000000,I2C,0x7A + ACK
0.094545000000000,I2C,0x00 + ACK
0.094569500000000,I2C,0x03 + ACK
0.094594125000000,I2C,0xCC + ACK
0.094618500000000,I2C,0x00 + ACK
0.094643125000000,I2C,0x01 + ACK
0.094667625000000,I2C,0x0C + ACK
0.094692125000000,I2C,0x00 + ACK
0.094716625000000,I2C,0x00 + ACK
0.094741125000000,I2C,0x00 + ACK
0.094765625000000,I2C,0x00 + ACK
0.094790250000000,I2C,0x00 + ACK
0.094814625000000,I2C,0x00 + ACK
0.094839250000000,I2C,0x00 + ACK
0.094863750000000,I2C,0x00 + ACK
0.094888250000000,I2C,0x00 + ACK
0.094912750000000,I2C,0x00 + ACK
0.094937250000000,I2C,0x00 + ACK
0.094961750000000,I2C,0x00 + ACK
0.094986375000000,I2C,0x00 + ACK
0.095010875000000,I2C,0x00 + ACK
0.095035375000000,I2C,0x01 + ACK
0.095059875000000,I2C,0x0C + ACK
0.095084375000000,I2C,0x00 + ACK
0.095108875000000,I2C,0x00 + ACK
0.095133375000000,I2C,0x00 + ACK
0.095158000000000,I2C,0x00 + ACK
0.095207625000000,I2C,Setup Write to [0xC0] + ACK
0.095232000000000,I2C,0xB1 + ACK
0.095256625000000,I2C,0xAC + ACK
0.095286625000000,I2C,Setup Write to [0xC0] + ACK
0.095311125000000,I2C,0x03 + ACK
0.095335750000000,I2C,0xFA + ACK
0.100136625000000,I2C,Setup Write to [0xC0] + ACK
0.100161125000000,I2C,0x03 + ACK
0.100185750000000,I2C,0xFF + ACK
0.100215750000000,I2C,Setup Write to [0xC0] + ACK
0.100240250000000,I2C,0xBB + ACK
0.100264750000000,I2C,0xC0 + ACK
0.100295875000000,I2C,Setup Write to [0xC0] + ACK
0.100320375000000,I2C,0x0F + ACK
0.100344875000000,I2C,0x00 + ACK
0.100369375000000,I2C,0x4F + ACK
0.100394000000000,I2C,0x80 + ACK
0.100418375000000,I2C,0x6F + ACK
0.100443000000000,I2C,0x80 + ACK
0.100467500000000,I2C,0x80 + ACK
0.100492000000000,I2C,0x80 + ACK
0.100516500000000,I2C,0x80 + ACK
0.100541000000000,I2C,0x80 + ACK
0.100565500000000,I2C,0xAA + ACK
0.100590125000000,I2C,0x00 + ACK
0.100614625000000,I2C,0x00 + ACK
0.100639125000000,I2C,0x19 + ACK
0.100663625000000,I2C,0x00 + ACK
0.100688125000000,I2C,0x0A + ACK
0.100712625000000,I2C,0xF5 + ACK
0.100737250000000,I2C,0x00 + ACK
0.100761750000000,I2C,0x00 + ACK
0.100786250000000,I2C,0x13 + ACK
0.100810750000000,I2C,0x04 + ACK
0.100835250000000,I2C,0xE2 + ACK
0.100859750000000,I2C,0x00 + ACK
0.100884375000000,I2C,0x0A + ACK
0.100908750000000,I2C,0xF5 + ACK
0.100933375000000,I2C,0x00 + ACK
0.100957875000000,I2C,0x03 + ACK
0.100982375000000,I2C,0x36 + ACK
0.101006875000000,I2C,0x00 + ACK
0.101031375000000,I2C,0x01 + ACK
0.101055875000000,I2C,0x0C + ACK
0.101080500000000,I2C,0x00 + ACK
0.101104875000000,I2C,0x00 + ACK
0.101129500000000,I2C,0x00 + ACK
0.101154000000000,I2C,0x00 + ACK
0.101178500000000,I2C,0x00 + ACK
0.101203000000000,I2C,0x00 + ACK
0.101227500000000,I2C,0x00 + ACK
0.101252000000000,I2C,0x00 + ACK
0.101276625000000,I2C,0x00 + ACK
0.101301000000000,I2C,0x00 + ACK
0.101325625000000,I2C,0x00 + ACK
0.101350125000000,I2C,0x00 + ACK
0.101374625000000,I2C,0x00 + ACK
0.101399125000000,I2C,0x00 + ACK
0.101423625000000,I2C,0x01 + ACK
0.101448125000000,I2C,0x0C + ACK
0.101472750000000,I2C,0x00 + ACK
0.101497250000000,I2C,0x00 + ACK
0.101521750000000,I2C,0x00 + ACK
0.101546250000000,I2C,0x00 + ACK
0.101595750000000,I2C,Setup Write to [0xC0] + ACK
0.101620250000000,I2C,0xB1 + ACK
0.101644750000000,I2C,0xAC + ACK
0.101674750000000,I2C,Setup Write to [0xC0] + ACK
0.101699250000000,I2C,0x03 + ACK
0.101723875000000,I2C,0xFA + ACK
0.106524000000000,I2C,Setup Write to [0xC0] + ACK
0.106548500000000,I2C,0x03 + ACK
0.106573000000000,I2C,0xFF + ACK
0.106603000000000,I2C,Setup Write to [0xC0] + ACK
0.106627625000000,I2C,0xBB + ACK
0.106652125000000,I2C,0xC0 + ACK
0.106683250000000,I2C,Setup Write to [0xC0] + ACK
0.106707625000000,I2C,0x0F + ACK
0.106732250000000,I2C,0x00 + ACK
0.106756750000000,I2C,0x4F + ACK
0.106781250000000,I2C,0x80 + ACK
0.106805750000000,I2C,0x6F + ACK
0.106830250000000,I2C,0x80 + ACK
0.106854750000000,I2C,0x80 + ACK
0.106879375000000,I2C,0x80 + ACK
0.106903875000000,I2C,0x80 + ACK
0.106928375000000,I2C,0x80 + ACK
0.106952875000000,I2C,0xAA + ACK
0.106977375000000,I2C,0x00 + ACK
0.107001875000000,I2C,0x00 + ACK
0.107026375000000,I2C,0x19 + ACK
0.107051000000000,I2C,0x00 + ACK
0.107075500000000,I2C,0x0D + ACK
0.107100000000000,I2C,0x1E + ACK
0.107124500000000,I2C,0x00 + ACK
0.107149000000000,I2C,0x00 + ACK
0.107173500000000,I2C,0x12 + ACK
0.107198000000000,I2C,0x04 + ACK
0.107222625000000,I2C,0xE2 + ACK
0.107247125000000,I2C,0x00 + ACK
0.107271625000000,I2C,0x0D + ACK
0.107296125000000,I2C,0x1E + ACK
0.107320625000000,I2C,0x00 + ACK
0.107345125000000,I2C,0x03 + ACK
0.107369750000000,I2C,0x04 + ACK
0.107394125000000,I2C,0x00 + ACK
0.107418750000000,I2C,0x01 + ACK
0.107443250000000,I2C,0x0C + ACK
0.107467750000000,I2C,0x00 + ACK
0.107492250000000,I2C,0x00 + ACK
0.107516750000000,I2C,0x00 + ACK
0.107541250000000,I2C,0x00 + ACK
0.107565875000000,I2C,0x00 + ACK
0.107590250000000,I2C,0x00 + ACK
0.107614875000000,I2C,0x00 + ACK
0.107639375000000,I2C,0x00 + ACK
0.107663875000000,I2C,0x00 + ACK
0.107688375000000,I2C,0x00 + ACK
0.107712875000000,I2C,0x00 + ACK
0.107737375000000,I2C,0x00 + ACK
0.107762000000000,I2C,0x00 + ACK
0.107786500000000,I2C,0x00 + ACK
0.107811000000000,I2C,0x01 + ACK
0.107835500000000,I2C,0x0C + ACK
0.107860000000000,I2C,0x00 + ACK
0.107884500000000,I2C,0x00 + ACK
0.107909000000000,I2C,0x00 + ACK
0.107933625000000,I2C,0x00 + ACK
0.107983250000000,I2C,Setup Write to [0xC0] + ACK
0.108007625000000,I2C,0xB1 + ACK
0.108032250000000,I2C,0xAC + ACK
0.108062250000000,I2C,Setup Write to [0xC0] + ACK
0.108086750000000,I2C,0x03 + ACK
0.108111375000000,I2C,0xFA + ACK
0.112911750000000,I2C,Setup Write to [0xC0] + ACK
0.112936250000000,I2C,0x03 + ACK
0.112960875000000,I2C,0xFF + ACK
0.112990875000000,I2C,Setup Write to [0xC0] + ACK
0.113015375000000,I2C,0xBB + ACK
0.113039875000000,I2C,0xC0 + ACK
0.113071000000000,I2C,Setup Write to [0xC0] + ACK
0.113095500000000,I2C,0x0F + ACK
0.113120000000000,I2C,0x00 + ACK
0.113144500000000,I2C,0x4F + ACK
0.113169125000000,I2C,0x80 + ACK
0.113193500000000,I2C,0x6F + ACK
0.113218125000000,I2C,0x80 + ACK
0.113242625000000,I2C,0x80 + ACK
0.113267125000000,I2C,0x80 + ACK
0.113291625000000,I2C,0x80 + ACK
0.113316125000000,I2C,0x80 + ACK
0.113340625000000,I2C,0xAA + ACK
0.113365250000000,I2C,0x00 + ACK
0.113389750000000,I2C,0x00 + ACK
0.113414250000000,I2C,0x19 + ACK
0.113438750000000,I2C,0x00 + ACK
0.113463250000000,I2C,0x0D + ACK
0.113487750000000,I2C,0x6B + ACK
0.113512250000000,I2C,0x00 + ACK
0.113536875000000,I2C,0x00 + ACK
0.113561375000000,I2C,0x0D + ACK
0.113585875000000,I2C,0x04 + ACK
0.113610375000000,I2C,0xE2 + ACK
0.113634875000000,I2C,0x00 + ACK
0.113659500000000,I2C,0x0D + ACK
0.113683875000000,I2C,0x6B + ACK
0.113708500000000,I2C,0x00 + ACK
0.113733000000000,I2C,0x02 + ACK
0.113757500000000,I2C,0x0A + ACK
0.113782000000000,I2C,0x00 + ACK
0.113806500000000,I2C,0x01 + ACK
0.113831000000000,I2C,0x0C + ACK
0.113855625000000,I2C,0x00 + ACK
0.113880000000000,I2C,0x00 + ACK
0.113904625000000,I2C,0x00 + ACK
0.113929125000000,I2C,0x00 + ACK
0.113953625000000,I2C,0x00 + ACK
0.113978125000000,I2C,0x00 + ACK
0.114002625000000,I2C,0x00 + ACK
0.114027125000000,I2C,0x00 + ACK
0.114051750000000,I2C,0x00 + ACK
0.114076125000000,I2C,0x00 + ACK
0.114100750000000,I2C,0x00 + ACK
0.114125250000000,I2C,0x00 + ACK
0.114149750000000,I2C,0x00 + ACK
0.114174250000000,I2C,0x00 + ACK
0.114198750000000,I2C,0x01 + ACK
0.114223250000000,I2C,0x0C + ACK
0.114247875000000,I2C,0x00 + ACK
0.114272375000000,I2C,0x00 + ACK
0.114296875000000,I2C,0x00 + ACK
0.114321375000000,I2C,0x00 + ACK
0.114371000000000,I2C,Setup Write to [0xC0] + ACK
0.114395500000000,I2C,0xB1 + ACK
0.114420000000000,I2C,0xAC + ACK
0.114450125000000,I2C,Setup Write to [0xC0] + ACK
0.114474625000000,I2C,0x03 + ACK
0.114499125000000,I2C,0xFA + ACK
0.119299625000000,I2C,Setup Write to [0xC0] + ACK
0.119324125000000,I2C,0x03 + ACK
0.119348625000000,I2C,0xFF + ACK
0.119378625000000,I2C,Setup Write to [0xC0] + ACK
0.119403250000000,I2C,0xBB + ACK
0.119427750000000,I2C,0xC0 + ACK
0.119458875000000,I2C,Setup Write to [0xC0] + ACK
0.119483250000000,I2C,0x0F + ACK
0.119507875000000,I2C,0x00 + ACK
0.119532375000000,I2C,0x4F + ACK
0.119556875000000,I2C,0x80 + ACK
0.119581375000000,I2C,0x6F + ACK
0.119605875000000,I2C,0x80 + ACK
0.119630375000000,I2C,0x80 + ACK
0.119655000000000,I2C,0x80 + ACK
0.119679375000000,I2C,0x80 + ACK
0.119704000000000,I2C,0x80 + ACK
0.119728500000000,I2C,0xAA + ACK
0.119753000000000,I2C,0x00 + ACK
0.119777500000000,I2C,0x00 + ACK
0.119802000000000,I2C,0x19 + ACK
0.119826500000000,I2C,0x00 + ACK
