Time [s], Analyzer Name, Decoded Protocol Result
0.000001812500000,I2C,Setup Write to [0xC0] + ACK
0.000025000000000,I2C,0xBC + ACK
0.000048187500000,I2C,0x00 + ACK
0.000076562500000,I2C,Setup Write to [0xC0] + ACK
0.000099687500000,I2C,0xBB + ACK
0.000122875000000,I2C,0x00 + ACK
0.000151250000000,I2C,Setup Write to [0xC0] + ACK
0.000174437500000,I2C,0x03 + ACK
0.000197562500000,I2C,0xFF + ACK
0.000225937500000,I2C,Setup Write to [0xC0] + ACK
0.000249125000000,I2C,0xBB + ACK
0.000272312500000,I2C,0xC0 + ACK
0.000300687500000,I2C,Setup Write to [0xC0] + ACK
0.000323875000000,I2C,0x0F + ACK
0.000347000000000,I2C,0x00 + ACK
0.000370187500000,I2C,0x4F + ACK
0.000393375000000,I2C,0x80 + ACK
0.000416562500000,I2C,0x6F + ACK
0.000439687500000,I2C,0x80 + ACK
0.000462875000000,I2C,0x80 + ACK
0.000486062500000,I2C,0x80 + ACK
0.000509187500000,I2C,0x80 + ACK
0.000532375000000,I2C,0x80 + ACK
0.000555562500000,I2C,0xAA + ACK
0.000578750000000,I2C,0xFF + ACK
0.000601875000000,I2C,0x3D + ACK
0.000625062500000,I2C,0x09 + ACK
0.000648187500000,I2C,0x00 + ACK
0.000671375000000,I2C,0x0A + ACK
0.000694562500000,I2C,0xF5 + ACK
0.000717750000000,I2C,0x00 + ACK
0.000740875000000,I2C,0x14 + ACK
0.000764062500000,I2C,0xE2 + ACK
0.000787250000000,I2C,0x7A + ACK
0.000810375000000,I2C,0x12 + ACK
0.000833562500000,I2C,0x00 + ACK
0.000856750000000,I2C,0x0A + ACK
0.000879875000000,I2C,0xF5 + ACK
0.000903062500000,I2C,0x00 + ACK
0.000926250000000,I2C,0x1D + ACK
0.000949375000000,I2C,0x45 + ACK
0.000972562500000,I2C,0x00 + ACK
0.000995750000000,I2C,0x01 + ACK
0.001018875000000,I2C,0x0C + ACK
0.001042062500000,I2C,0x00 + ACK
0.001065250000000,I2C,0x00 + ACK
0.001088375000000,I2C,0x00 + ACK
0.001111562500000,I2C,0x00 + ACK
0.001134750000000,I2C,0x00 + ACK
0.001157875000000,I2C,0x00 + ACK
0.001181062500000,I2C,0x00 + ACK
0.001204250000000,I2C,0x00 + ACK
0.001227375000000,I2C,0x00 + ACK
0.001250562500000,I2C,0x00 + ACK
0.001273750000000,I2C,0x00 + ACK
0.001296875000000,I2C,0x00 + ACK
0.001320062500000,I2C,0x00 + ACK
0.001343250000000,I2C,0x00 + ACK
0.001366375000000,I2C,0x01 + ACK
0.001389562500000,I2C,0x0C + ACK
0.001412750000000,I2C,0x00 + ACK
0.001435875000000,I2C,0x00 + ACK
0.001459062500000,I2C,0x00 + ACK
0.011247187500000,I2C,Setup Write to [0xC0] + ACK
0.011270375000000,I2C,0xB1 + ACK
0.011293500000000,I2C,0xAC + ACK
0.011321937500000,I2C,Setup Write to [0xC0] + ACK
0.011345062500000,I2C,0x03 + ACK
0.011368250000000,I2C,0xFA + ACK
0.057553562500000,I2C,Setup Write to [0xC0] + ACK
0.057576687500000,I2C,0x03 + ACK
0.057599875000000,I2C,0xFF + ACK
0.057628250000000,I2C,Setup Write to [0xC0] + ACK
0.057651375000000,I2C,0xBB + ACK
0.057674562500000,I2C,0xC0 + ACK
0.057702937500000,I2C,Setup Write to [0xC0] + ACK
0.057726125000000,I2C,0x0F + ACK
0.057749250000000,I2C,0x00 + ACK
0.057772437500000,I2C,0x4F + ACK
0.057795625000000,I2C,0x80 + ACK
0.057818750000000,I2C,0x6F + ACK
0.057841937500000,I2C,0x80 + ACK
0.057865125000000,I2C,0x80 + ACK
0.057888312500000,I2C,0x80 + ACK
0.057911437500000,I2C,0x80 + ACK
0.057934625000000,I2C,0x80 + ACK
0.057957812500000,I2C,0xAA + ACK
0.057980937500000,I2C,0xFF + ACK
0.058004125000000,I2C,0x7A + ACK
0.058027312500000,I2C,0x12 + ACK
0.058050437500000,I2C,0x00 + ACK
0.058073625000000,I2C,0x0D + ACK
0.058096812500000,I2C,0x1E + ACK
0.058120000000000,I2C,0x00 + ACK
0.058143125000000,I2C,0x1C + ACK
0.058166312500000,I2C,0x64 + ACK
0.058189500000000,I2C,0x3D + ACK
0.058212625000000,I2C,0x09 + ACK
0.058235812500000,I2C,0x00 + ACK
0.058258937500000,I2C,0x0D + ACK
0.058282125000000,I2C,0x1E + ACK
0.058305312500000,I2C,0x00 + ACK
0.058328437500000,I2C,0x07 + ACK
0.058351625000000,I2C,0xF1 + ACK
0.058374812500000,I2C,0x00 + ACK
0.058397937500000,I2C,0x01 + ACK
0.058421125000000,I2C,0x0C + ACK
0.058444312500000,I2C,0x00 + ACK
0.058467437500000,I2C,0x00 + ACK
0.058490625000000,I2C,0x00 + ACK
0.058513812500000,I2C,0x00 + ACK
0.058536937500000,I2C,0x00 + ACK
0.058560125000000,I2C,0x00 + ACK
0.058583312500000,I2C,0x00 + ACK
0.058606437500000,I2C,0x00 + ACK
0.058629625000000,I2C,0x00 + ACK
0.058652812500000,I2C,0x00 + ACK
0.058675937500000,I2C,0x00 + ACK
0.058699125000000,I2C,0x00 + ACK
0.058722312500000,I2C,0x00 + ACK
0.058745437500000,I2C,0x00 + ACK
0.058768625000000,I2C,0x01 + ACK
0.058791812500000,I2C,0x0C + ACK
0.058815000000000,I2C,0x00 + ACK
0.058838125000000,I2C,0x00 + ACK
0.058861312500000,I2C,0x00 + ACK
0.058889687500000,I2C,Setup Write to [0xC0] + ACK
0.058912812500000,I2C,0xB1 + ACK
0.058936000000000,I2C,0xAC + ACK
0.058964375000000,I2C,Setup Write to [0xC0] + ACK
0.058987562500000,I2C,0x03 + ACK
0.059010687500000,I2C,0xFA + ACK
0.063629375000000,I2C,Setup Write to [0xC0] + ACK
0.063652562500000,I2C,0x03 + ACK
0.063675687500000,I2C,0xFF + ACK
0.063704125000000,I2C,Setup Write to [0xC0] + ACK
0.063727250000000,I2C,0xBB + ACK
0.063750437500000,I2C,0xC0 + ACK
0.063778812500000,I2C,Setup Write to [0xC0] + ACK
0.063802000000000,I2C,0x0F + ACK
0.063825125000000,I2C,0x00 + ACK
0.063848312500000,I2C,0x4F + ACK
0.063871500000000,I2C,0x80 + ACK
0.063894687500000,I2C,0x6F + ACK
0.063917812500000,I2C,0x80 + ACK
0.063941000000000,I2C,0x80 + ACK
0.063964187500000,I2C,0x80 + ACK
0.063987312500000,I2C,0x80 + ACK
0.064010500000000,I2C,0x80 + ACK
0.064033687500000,I2C,0xAA + ACK
0.064056875000000,I2C,0xFF + ACK
0.064080000000000,I2C,0xF4 + ACK
0.064103187500000,I2C,0x24 + ACK
0.064126375000000,I2C,0x00 + ACK
0.064149562500000,I2C,0x0D + ACK
0.064172687500000,I2C,0x6B + ACK
0.064195875000000,I2C,0x00 + ACK
0.064219062500000,I2C,0x05 + ACK
0.064242187500000,I2C,0x73 + ACK
0.064265375000000,I2C,0xF4 + ACK
0.064288562500000,I2C,0x24 + ACK
0.064311750000000,I2C,0x00 + ACK
0.064334875000000,I2C,0x0D + ACK
0.064358062500000,I2C,0x6A + ACK
0.064381250000000,I2C,0x00 + ACK
0.064404375000000,I2C,0xE0 + ACK
0.064427562500000,I2C,0x98 + ACK
0.064450750000000,I2C,0x00 + ACK
0.064473875000000,I2C,0x01 + ACK
0.064497062500000,I2C,0x0C + ACK
0.064520250000000,I2C,0x00 + ACK
0.064543437500000,I2C,0x00 + ACK
0.064566562500000,I2C,0x00 + ACK
0.064589750000000,I2C,0x00 + ACK
0.064612937500000,I2C,0x00 + ACK
0.064636125000000,I2C,0x00 + ACK
0.064659250000000,I2C,0x00 + ACK
0.064682437500000,I2C,0x00 + ACK
0.064705625000000,I2C,0x00 + ACK
0.064728750000000,I2C,0x00 + ACK
0.064751937500000,I2C,0x00 + ACK
0.064775125000000,I2C,0x00 + ACK
0.064798250000000,I2C,0x00 + ACK
0.064821437500000,I2C,0x00 + ACK
0.064844625000000,I2C,0x01 + ACK
0.064867812500000,I2C,0x0C + ACK
0.064890937500000,I2C,0x00 + ACK
0.064914125000000,I2C,0x00 + ACK
0.064937312500000,I2C,0x00 + ACK
0.064965687500000,I2C,Setup Write to [0xC0] + ACK
0.064988875000000,I2C,0xB1 + ACK
0.065012000000000,I2C,0xAC + ACK
0.065040375000000,I2C,Setup Write to [0xC0] + ACK
0.065063562500000,I2C,0x03 + ACK
0.065086750000000,I2C,0xFA + ACK
0.069705187500000,I2C,Setup Write to [0xC0] + ACK
0.069728375000000,I2C,0x03 + ACK
0.069751562500000,I2C,0xFF + ACK
0.069779937500000,I2C,Setup Write to [0xC0] + ACK
0.069803062500000,I2C,0xBB + ACK
0.069826250000000,I2C,0xC0 + ACK
0.069854625000000,I2C,Setup Write to [0xC0] + ACK
0.069877812500000,I2C,0x0F + ACK
0.069900937500000,I2C,0x00 + ACK
0.069924125000000,I2C,0x4F + ACK
0.069947250000000,I2C,0x80 + ACK
0.069970437500000,I2C,0x6F + ACK
0.069993625000000,I2C,0x80 + ACK
0.070016750000000,I2C,0x80 + ACK
0.070039937500000,I2C,0x80 + ACK
0.070063125000000,I2C,0x80 + ACK
0.070086250000000,I2C,0x80 + ACK
0.070109437500000,I2C,0xAA + ACK
0.070132625000000,I2C,0xFF + ACK
0.070155750000000,I2C,0x3D + ACK
0.070178937500000,I2C,0x09 + ACK
0.070202125000000,I2C,0x00 + ACK
0.070225250000000,I2C,0x0D + ACK
0.070248437500000,I2C,0x7A + ACK
0.070271625000000,I2C,0x00 + ACK
0.070294750000000,I2C,0x17 + ACK
0.070317937500000,I2C,0x35 + ACK
0.070341125000000,I2C,0x7A + ACK
0.070364312500000,I2C,0x12 + ACK
0.070387437500000,I2C,0x00 + ACK
0.070410625000000,I2C,0x0D + ACK
0.070433812500000,I2C,0x7A + ACK
0.070456937500000,I2C,0x00 + ACK
0.070480125000000,I2C,0x21 + ACK
0.070503312500000,I2C,0xEC + ACK
0.070526437500000,I2C,0x00 + ACK
0.070549625000000,I2C,0x01 + ACK
0.070572812500000,I2C,0x0C + ACK
0.070596000000000,I2C,0x00 + ACK
0.070619125000000,I2C,0x00 + ACK
0.070642312500000,I2C,0x00 + ACK
0.070665500000000,I2C,0x00 + ACK
0.070688625000000,I2C,0x00 + ACK
0.070711812500000,I2C,0x00 + ACK
0.070735000000000,I2C,0x00 + ACK
0.070758125000000,I2C,0x00 + ACK
0.070781312500000,I2C,0x00 + ACK
0.070804500000000,I2C,0x00 + ACK
0.070827625000000,I2C,0x00 + ACK
0.070850812500000,I2C,0x00 + ACK
0.070874000000000,I2C,0x00 + ACK
0.070897125000000,I2C,0x00 + ACK
0.070920312500000,I2C,0x01 + ACK
0.070943500000000,I2C,0x0C + ACK
0.070966625000000,I2C,0x00 + ACK
0.070989812500000,I2C,0x00 + ACK
0.071013000000000,I2C,0x00 + ACK
0.071041375000000,I2C,Setup Write to [0xC0] + ACK
0.071064500000000,I2C,0xB1 + ACK
0.071087687500000,I2C,0xAC + ACK
0.071116062500000,I2C,Setup Write to [0xC0] + ACK
0.071139250000000,I2C,0x03 + ACK
0.071162437500000,I2C,0xFA + ACK
0.075781187500000,I2C,Setup Write to [0xC0] + ACK
0.075804375000000,I2C,0x03 + ACK
0.075827562500000,I2C,0xFF + ACK
0.075855937500000,I2C,Setup Write to [0xC0] + ACK
0.075879062500000,I2C,0xBB + ACK
0.075902250000000,I2C,0xC0 + ACK
0.075930625000000,I2C,Setup Write to [0xC0] + ACK
0.075953812500000,I2C,0x0F + ACK
0.075976937500000,I2C,0x00 + ACK
0.076000125000000,I2C,0x4F + ACK
0.076023312500000,I2C,0x80 + ACK
0.076046437500000,I2C,0x6F + ACK
0.076069625000000,I2C,0x80 + ACK
0.076092812500000,I2C,0x80 + ACK
0.076115937500000,I2C,0x80 + ACK
0.076139125000000,I2C,0x80 + ACK
0.076162312500000,I2C,0x80 + ACK
0.076185437500000,I2C,0xAA + ACK
0.076208625000000,I2C,0xFF + ACK
0.076231812500000,I2C,0x3D + ACK
0.076254937500000,I2C,0x09 + ACK
0.076278125000000,I2C,0x00 + ACK
0.076301312500000,I2C,0x0A + ACK
0.076324500000000,I2C,0xF5 + ACK
0.076347625000000,I2C,0x00 + ACK
0.076370812500000,I2C,0x14 + ACK
0.076394000000000,I2C,0xE2 + ACK
0.076417125000000,I2C,0x7A + ACK
0.076440312500000,I2C,0x12 + ACK
0.076463500000000,I2C,0x00 + ACK
0.076486625000000,I2C,0x0A + ACK
0.076509812500000,I2C,0xF5 + ACK
0.076532937500000,I2C,0x00 + ACK
0.076556125000000,I2C,0x1D + ACK
0.076579312500000,I2C,0x45 + ACK
0.076602500000000,I2C,0x00 + ACK
0.076625625000000,I2C,0x01 + ACK
0.076648812500000,I2C,0x0C + ACK
0.076672000000000,I2C,0x00 + ACK
0.076695125000000,I2C,0x00 + ACK
0.076718312500000,I2C,0x00 + ACK
0.076741500000000,I2C,0x00 + ACK
0.076764625000000,I2C,0x00 + ACK
0.076787812500000,I2C,0x00 + ACK
0.076811000000000,I2C,0x00 + ACK
0.076834125000000,I2C,0x00 + ACK
0.076857312500000,I2C,0x00 + ACK
0.076880437500000,I2C,0x00 + ACK
0.076903625000000,I2C,0x00 + ACK
0.076926812500000,I2C,0x00 + ACK
0.076949937500000,I2C,0x00 + ACK
0.076973125000000,I2C,0x00 + ACK
0.076996312500000,I2C,0x01 + ACK
0.077019437500000,I2C,0x0C + ACK
0.077042625000000,I2C,0x00 + ACK
0.077065812500000,I2C,0x00 + ACK
0.077088937500000,I2C,0x00 + ACK
0.077117312500000,I2C,Setup Write to [0xC0] + ACK
0.077140500000000,I2C,0xB1 + ACK
0.077163687500000,I2C,0xAC + ACK
0.077192062500000,I2C,Setup Write to [0xC0] + ACK
0.077215187500000,I2C,0x03 + ACK
0.077238375000000,I2C,0xFA + ACK
0.081856687500000,I2C,Setup Write to [0xC0] + ACK
0.081879812500000,I2C,0x03 + ACK
0.081903000000000,I2C,0xFF + ACK
0.081931375000000,I2C,Setup Write to [0xC0] + ACK
0.081954562500000,I2C,0xBB + ACK
0.081977687500000,I2C,0xC0 + ACK
0.082006062500000,I2C,Setup Write to [0xC0] + ACK
0.082029250000000,I2C,0x0F + ACK
0.082052437500000,I2C,0x00 + ACK
0.082075562500000,I2C,0x4F + ACK
0.082098750000000,I2C,0x80 + ACK
0.082121937500000,I2C,0x6F + ACK
0.082145062500000,I2C,0x80 + ACK
0.082168250000000,I2C,0x80 + ACK
0.082191437500000,I2C,0x80 + ACK
0.082214625000000,I2C,0x80 + ACK
0.082237750000000,I2C,0x80 + ACK
0.082260937500000,I2C,0xAA + ACK
0.082284125000000,I2C,0xFF + ACK
0.082307250000000,I2C,0x7A + ACK
0.082330437500000,I2C,0x12 + ACK
0.082353625000000,I2C,0x00 + ACK
0.082376812500000,I2C,0x0D + ACK
0.082399937500000,I2C,0x1E + ACK
0.082423125000000,I2C,0x00 + ACK
0.082446250000000,I2C,0x1C + ACK
0.082469437500000,I2C,0x64 + ACK
0.082492625000000,I2C,0x3D + ACK
0.082515750000000,I2C,0x09 + ACK
0.082538937500000,I2C,0x00 + ACK
0.082562125000000,I2C,0x0D + ACK
0.082585250000000,I2C,0x1E + ACK
0.082608437500000,I2C,0x00 + ACK
0.082631625000000,I2C,0x07 + ACK
0.082654750000000,I2C,0xF1 + ACK
0.082677937500000,I2C,0x00 + ACK
0.082701125000000,I2C,0x01 + ACK
0.082724250000000,I2C,0x0C + ACK
0.082747437500000,I2C,0x00 + ACK
0.082770625000000,I2C,0x00 + ACK
0.082793812500000,I2C,0x00 + ACK
0.082816937500000,I2C,0x00 + ACK
0.082840125000000,I2C,0x00 + ACK
0.082863250000000,I2C,0x00 + ACK
0.082886437500000,I2C,0x00 + ACK
0.082909625000000,I2C,0x00 + ACK
0.082932750000000,I2C,0x00 + ACK
0.082955937500000,I2C,0x00 + ACK
0.082979125000000,I2C,0x00 + ACK
0.083002250000000,I2C,0x00 + ACK
0.083025437500000,I2C,0x00 + ACK
0.083048562500000,I2C,0x00 + ACK
0.083071750000000,I2C,0x01 + ACK
0.083094937500000,I2C,0x0C + ACK
0.083118125000000,I2C,0x00 + ACK
0.083141250000000,I2C,0x00 + ACK
0.083164437500000,I2C,0x00 + ACK
0.083192812500000,I2C,Setup Write to [0xC0] + ACK
0.083216000000000,I2C,0xB1 + ACK
0.083239125000000,I2C,0xAC + ACK
0.083267500000000,I2C,Setup Write to [0xC0] + ACK
0.083290687500000,I2C,0x03 + ACK
0.083313875000000,I2C,0xFA + ACK
0.087931937500000,I2C,Setup Write to [0xC0] + ACK
0.087955062500000,I2C,0x03 + ACK
0.087978250000000,I2C,0xFF + ACK
0.088006625000000,I2C,Setup Write to [0xC0] + ACK
0.088029812500000,I2C,0xBB + ACK
0.088052937500000,I2C,0xC0 + ACK
0.088081312500000,I2C,Setup Write to [0xC0] + ACK
0.088104500000000,I2C,0x0F + ACK
0.088127687500000,I2C,0x00 + ACK
0.088150875000000,I2C,0x4F + ACK
0.088174000000000,I2C,0x80 + ACK
0.088197187500000,I2C,0x6F + ACK
0.088220375000000,I2C,0x80 + ACK
0.088243500000000,I2C,0x80 + ACK
0.088266687500000,I2C,0x80 + ACK
0.088289875000000,I2C,0x80 + ACK
0.088313000000000,I2C,0x80 + ACK
0.088336187500000,I2C,0xAA + ACK
0.088359375000000,I2C,0xFF + ACK
0.088382562500000,I2C,0xF4 + ACK
0.088405687500000,I2C,0x24 + ACK
0.088428875000000,I2C,0x00 + ACK
0.088452062500000,I2C,0x0D + ACK
0.088475187500000,I2C,0x6B + ACK
0.088498375000000,I2C,0x00 + ACK
0.088521562500000,I2C,0x05 + ACK
0.088544687500000,I2C,0x73 + ACK
0.088567875000000,I2C,0xF4 + ACK
0.088591062500000,I2C,0x24 + ACK
0.088614187500000,I2C,0x00 + ACK
0.088637375000000,I2C,0x0D + ACK
0.088660562500000,I2C,0x6A + ACK
0.088683687500000,I2C,0x00 + ACK
0.088706875000000,I2C,0xE0 + ACK
0.088730062500000,I2C,0x98 + ACK
0.088753187500000,I2C,0x00 + ACK
0.088776375000000,I2C,0x01 + ACK
0.088799562500000,I2C,0x0C + ACK
0.088822687500000,I2C,0x00 + ACK
0.088845875000000,I2C,0x00 + ACK
0.088869062500000,I2C,0x00 + ACK
0.088892187500000,I2C,0x00 + ACK
0.088915375000000,I2C,0x00 + ACK
0.088938562500000,I2C,0x00 + ACK
0.088961687500000,I2C,0x00 + ACK
0.088984875000000,I2C,0x00 + ACK
0.089008000000000,I2C,0x00 + ACK
0.089031187500000,I2C,0x00 + ACK
0.089054375000000,I2C,0x00 + ACK
0.089077500000000,I2C,0x00 + ACK
0.089100687500000,I2C,0x00 + ACK
0.089123875000000,I2C,0x00 + ACK
0.089147000000000,I2C,0x01 + ACK
0.089170187500000,I2C,0x0C + ACK
0.089193375000000,I2C,0x00 + ACK
0.089216500000000,I2C,0x00 + ACK
0.089239687500000,I2C,0x00 + ACK
0.089268062500000,I2C,Setup Write to [0xC0] + ACK
0.089291250000000,I2C,0xB1 + ACK
0.089314375000000,I2C,0xAC + ACK
0.089342750000000,I2C,Setup Write to [0xC0] + ACK
0.089365937500000,I2C,0x03 + ACK
0.089389125000000,I2C,0xFA + ACK
0.094007750000000,I2C,Setup Write to [0xC0] + ACK
0.094030937500000,I2C,0x03 + ACK
0.094054125000000,I2C,0xFF + ACK
0.094082500000000,I2C,Setup Write to [0xC0] + ACK
0.094105687500000,I2C,0xBB + ACK
0.094128812500000,I2C,0xC0 + ACK
0.094157187500000,I2C,Setup Write to [0xC0] + ACK
0.094180375000000,I2C,0x0F + ACK
0.094203562500000,I2C,0x00 + ACK
0.094226750000000,I2C,0x4F + ACK
0.094249875000000,I2C,0x80 + ACK
0.094273062500000,I2C,0x6F + ACK
0.094296250000000,I2C,0x80 + ACK
0.094319375000000,I2C,0x80 + ACK
0.094342562500000,I2C,0x80 + ACK
0.094365750000000,I2C,0x80 + ACK
0.094388875000000,I2C,0x80 + ACK
0.094412062500000,I2C,0xAA + ACK
0.094435250000000,I2C,0xFF + ACK
0.094458437500000,I2C,0x3D + ACK
0.094481562500000,I2C,0x09 + ACK
0.094504750000000,I2C,0x00 + ACK
0.094527937500000,I2C,0x0D + ACK
0.094551062500000,I2C,0x7A + ACK
0.094574250000000,I2C,0x00 + ACK
0.094597437500000,I2C,0x17 + ACK
0.094620625000000,I2C,0x35 + ACK
0.094643750000000,I2C,0x7A + ACK
0.094666937500000,I2C,0x12 + ACK
0.094690125000000,I2C,0x00 + ACK
0.094713250000000,I2C,0x0D + ACK
0.094736437500000,I2C,0x7A + ACK
0.094759625000000,I2C,0x00 + ACK
0.094782750000000,I2C,0x21 + ACK
0.094805937500000,I2C,0xEC + ACK
0.094829125000000,I2C,0x00 + ACK
0.094852250000000,I2C,0x01 + ACK
0.094875437500000,I2C,0x0C + ACK
0.094898625000000,I2C,0x00 + ACK
0.094921812500000,I2C,0x00 + ACK
0.094944937500000,I2C,0x00 + ACK
0.094968125000000,I2C,0x00 + ACK
0.094991312500000,I2C,0x00 + ACK
0.095014437500000,I2C,0x00 + ACK
0.095037625000000,I2C,0x00 + ACK
0.095060812500000,I2C,0x00 + ACK
0.095083937500000,I2C,0x00 + ACK
0.095107125000000,I2C,0x00 + ACK
0.095130312500000,I2C,0x00 + ACK
0.095153437500000,I2C,0x00 + ACK
0.095176625000000,I2C,0x00 + ACK
0.095199812500000,I2C,0x00 + ACK
0.095223000000000,I2C,0x01 + ACK
0.095246125000000,I2C,0x0C + ACK
0.095269312500000,I2C,0x00 + ACK
0.095292500000000,I2C,0x00 + ACK
0.095315625000000,I2C,0x00 + ACK
0.095344000000000,I2C,Setup Write to [0xC0] + ACK
0.095367187500000,I2C,0xB1 + ACK
0.095390375000000,I2C,0xAC + ACK
0.095418750000000,I2C,Setup Write to [0xC0] + ACK
0.095441937500000,I2C,0x03 + ACK
0.095465062500000,I2C,0xFA + ACK
0.100084312500000,I2C,Setup Write to [0xC0] + ACK
0.100107500000000,I2C,0x03 + ACK
0.100130687500000,I2C,0xFF + ACK
0.100159062500000,I2C,Setup Write to [0xC0] + ACK
0.100182187500000,I2C,0xBB + ACK
0.100205375000000,I2C,0xC0 + ACK
0.100233750000000,I2C,Setup Write to [0xC0] + ACK
0.100256937500000,I2C,0x0F + ACK
0.100280062500000,I2C,0x00 + ACK
0.100303250000000,I2C,0x4F + ACK
0.100326437500000,I2C,0x80 + ACK
0.100349562500000,I2C,0x6F + ACK
0.100372750000000,I2C,0x80 + ACK
0.100395937500000,I2C,0x80 + ACK
0.100419062500000,I2C,0x80 + ACK
0.100442250000000,I2C,0x80 + ACK
0.100465437500000,I2C,0x80 + ACK
0.100488625000000,I2C,0xAA + ACK
0.100511750000000,I2C,0xFF + ACK
0.100534937500000,I2C,0x3D + ACK
0.100558125000000,I2C,0x09 + ACK
0.100581250000000,I2C,0x00 + ACK
0.100604437500000,I2C,0x0A + ACK
0.100627625000000,I2C,0xF5 + ACK
0.100650750000000,I2C,0x00 + ACK
0.100673937500000,I2C,0x14 + ACK
0.100697125000000,I2C,0xE2 + ACK
0.100720250000000,I2C,0x7A + ACK
0.100743437500000,I2C,0x12 + ACK
0.100766625000000,I2C,0x00 + ACK
0.100789750000000,I2C,0x0A + ACK
0.100812937500000,I2C,0xF5 + ACK
0.100836062500000,I2C,0x00 + ACK
0.100859250000000,I2C,0x1D + ACK
0.100882437500000,I2C,0x45 + ACK
0.100905562500000,I2C,0x00 + ACK
0.100928750000000,I2C,0x01 + ACK
0.100951937500000,I2C,0x0C + ACK
0.100975062500000,I2C,0x00 + ACK
0.100998250000000,I2C,0x00 + ACK
0.101021437500000,I2C,0x00 + ACK
0.101044562500000,I2C,0x00 + ACK
0.101067750000000,I2C,0x00 + ACK
0.101090937500000,I2C,0x00 + ACK
0.101114062500000,I2C,0x00 + ACK
0.101137250000000,I2C,0x00 + ACK
0.101160437500000,I2C,0x00 + ACK
0.101183562500000,I2C,0x00 + ACK
0.101206750000000,I2C,0x00 + ACK
0.101229937500000,I2C,0x00 + ACK
0.101253062500000,I2C,0x00 + ACK
0.101276250000000,I2C,0x00 + ACK
0.101299375000000,I2C,0x01 + ACK
0.101322562500000,I2C,0x0C + ACK
0.101345750000000,I2C,0x00 + ACK
0.101368875000000,I2C,0x00 + ACK
0.101392062500000,I2C,0x00 + ACK
0.101420437500000,I2C,Setup Write to [0xC0] + ACK
0.101443625000000,I2C,0xB1 + ACK
0.101466750000000,I2C,0xAC + ACK
0.101495125000000,I2C,Setup Write to [0xC0] + ACK
0.101518312500000,I2C,0x03 + ACK
0.101541500000000,I2C,0xFA + ACK
0.106159437500000,I2C,Setup Write to [0xC0] + ACK
0.106182625000000,I2C,0x03 + ACK
0.106205750000000,I2C,0xFF + ACK
0.106234125000000,I2C,Setup Write to [0xC0] + ACK
0.106257312500000,I2C,0xBB + ACK
0.106280437500000,I2C,0xC0 + ACK
