Time [s], Analyzer Name, Decoded Protocol Result
0.000002041666667,I2C,Setup Write to [0xC0] + ACK
0.000026958333333,I2C,0xB6 + ACK
0.000057416666667,I2C,Setup Read to [0xC1] + ACK
0.000082291666667,I2C,0x00 + NAK
0.000115041666667,I2C,Setup Write to [0xC0] + ACK
0.000140000000000,I2C,0x01 + ACK
0.000170500000000,I2C,Setup Read to [0xC1] + ACK
0.000195375000000,I2C,0x60 + NAK
0.000229666666667,I2C,Setup Write to [0xC0] + ACK
0.000254625000000,I2C,0x02 + ACK
0.000279750000000,I2C,0x80 + ACK
0.000311625000000,I2C,Setup Write to [0xC0] + ACK
0.000336583333333,I2C,0x04 + ACK
0.000361750000000,I2C,0x30 + ACK
0.000393625000000,I2C,Setup Write to [0xC0] + ACK
0.000418583333333,I2C,0x05 + ACK
0.000443708333333,I2C,0x32 + ACK
0.000475583333333,I2C,Setup Write to [0xC0] + ACK
0.000500500000000,I2C,0x06 + ACK
0.000525666666667,I2C,0x30 + ACK
0.000557541666667,I2C,Setup Write to [0xC0] + ACK
0.000582458333333,I2C,0x07 + ACK
0.000607583333333,I2C,0x0B + ACK
0.000639458333333,I2C,Setup Write to [0xC0] + ACK
0.000664375000000,I2C,0x08 + ACK
0.000689541666667,I2C,0xF4 + ACK
0.000721375000000,I2C,Setup Write to [0xC0] + ACK
0.000746291666667,I2C,0x10 + ACK
0.000771458333333,I2C,0x80 + ACK
0.000803333333333,I2C,Setup Write to [0xC0] + ACK
0.000828291666667,I2C,0x11 + ACK
0.000853458333333,I2C,0x04 + ACK
0.000885333333333,I2C,Setup Write to [0xC0] + ACK
0.000910291666667,I2C,0x20 + ACK
0.000935416666667,I2C,0x80 + ACK
0.000967291666667,I2C,Setup Write to [0xC0] + ACK
0.000992250000000,I2C,0x21 + ACK
0.001017375000000,I2C,0x02 + ACK
0.001049291666667,I2C,Setup Write to [0xC0] + ACK
0.001074250000000,I2C,0x22 + ACK
0.001099375000000,I2C,0x42 + ACK
0.001131250000000,I2C,Setup Write to [0xC0] + ACK
0.001156208333333,I2C,0x30 + ACK
0.001181333333333,I2C,0x00 + ACK
0.001213208333333,I2C,Setup Write to [0xC0] + ACK
0.001238166666667,I2C,0x31 + ACK
0.001263291666667,I2C,0x00 + ACK
0.001295166666667,I2C,Setup Write to [0xC0] + ACK
0.001320125000000,I2C,0x32 + ACK
0.001345208333333,I2C,0x02 + ACK
0.001377083333333,I2C,Setup Write to [0xC0] + ACK
0.001402041666667,I2C,0x33 + ACK
0.001427166666667,I2C,0x01 + ACK
0.001459041666667,I2C,Setup Write to [0xC0] + ACK
0.001483958333333,I2C,0x60 + ACK
0.001509083333333,I2C,0x80 + ACK
0.001541000000000,I2C,Setup Write to [0xC0] + ACK
0.001565916666667,I2C,0x61 + ACK
0.001591041666667,I2C,0x02 + ACK
0.001622916666667,I2C,Setup Write to [0xC0] + ACK
0.001647875000000,I2C,0x62 + ACK
0.001673000000000,I2C,0x42 + ACK
0.001704833333333,I2C,Setup Write to [0xC0] + ACK
0.001729791666667,I2C,0x70 + ACK
0.001754916666667,I2C,0x00 + ACK
0.001786791666667,I2C,Setup Write to [0xC0] + ACK
0.001811750000000,I2C,0x71 + ACK
0.001836833333333,I2C,0x00 + ACK
0.001868750000000,I2C,Setup Write to [0xC0] + ACK
0.001893666666667,I2C,0x72 + ACK
0.001918750000000,I2C,0x02 + ACK
0.001950666666667,I2C,Setup Write to [0xC0] + ACK
0.001975583333333,I2C,0x73 + ACK
0.002000666666667,I2C,0x01 + ACK
2.595345416666667,I2C,Setup Write to [0xC0] + ACK
2.595370375000000,I2C,0x25 + ACK
2.595395541666667,I2C,0x02 + ACK
2.595420708333333,I2C,0xC7 + ACK
2.595445791666667,I2C,0x1C + ACK
2.595470875000000,I2C,0x72 + ACK
2.595502458333333,I2C,Setup Write to [0xC0] + ACK
2.595527416666667,I2C,0x2D + ACK
2.595552500000000,I2C,0x01 + ACK
2.595584375000000,I2C,Setup Write to [0xC0] + ACK
2.595609333333333,I2C,0x65 + ACK
2.595634458333334,I2C,0x02 + ACK
2.595659625000000,I2C,0xC7 + ACK
2.595684708333333,I2C,0x22 + ACK
2.595709833333333,I2C,0x10 + ACK
2.595741458333333,I2C,Setup Write to [0xC0] + ACK
2.595766375000000,I2C,0x6D + ACK
2.595791500000000,I2C,0x01 + ACK
2.595824500000000,I2C,Setup Write to [0xC0] + ACK
2.595849458333333,I2C,0x11 + ACK
2.595874583333333,I2C,0x54 + ACK
2.595906166666667,I2C,Setup Write to [0xC0] + ACK
2.595931125000000,I2C,0x04 + ACK
2.595956250000000,I2C,0x33 + ACK
2.595987833333333,I2C,Setup Write to [0xC0] + ACK
2.596012750000000,I2C,0x06 + ACK
2.596037916666667,I2C,0x33 + ACK
2.627369958333333,I2C,Setup Write to [0xC0] + ACK
2.627394916666667,I2C,0x25 + ACK
2.627420083333333,I2C,0x02 + ACK
2.627445208333334,I2C,0x61 + ACK
2.627470291666667,I2C,0x86 + ACK
2.627495416666667,I2C,0x18 + ACK
2.627527000000000,I2C,Setup Write to [0xC0] + ACK
2.627551958333334,I2C,0x2D + ACK
2.627577041666667,I2C,0x01 + ACK
2.627608916666667,I2C,Setup Write to [0xC0] + ACK
2.627633833333333,I2C,0x65 + ACK
2.627659000000000,I2C,0x02 + ACK
2.627684166666667,I2C,0x61 + ACK
2.627709208333334,I2C,0x8A + ACK
2.627734333333333,I2C,0x39 + ACK
2.627765875000000,I2C,Setup Write to [0xC0] + ACK
2.627790833333334,I2C,0x6D + ACK
2.627815916666667,I2C,0x01 + ACK
2.631069250000000,I2C,Setup Write to [0xC0] + ACK
2.631094208333333,I2C,0x25 + ACK
2.631119375000000,I2C,0x02 + ACK
2.631144500000000,I2C,0x55 + ACK
2.631169583333334,I2C,0xAA + ACK
2.631194666666667,I2C,0x56 + ACK
2.631226250000000,I2C,Setup Write to [0xC0] + ACK
2.631251166666666,I2C,0x2D + ACK
2.631276291666667,I2C,0x01 + ACK
2.631308125000000,I2C,Setup Write to [0xC0] + ACK
2.631333083333333,I2C,0x65 + ACK
2.631358208333333,I2C,0x02 + ACK
2.631383375000000,I2C,0x55 + ACK
2.631408458333333,I2C,0xAE + ACK
2.631433541666667,I2C,0x4E + ACK
2.631465083333334,I2C,Setup Write to [0xC0] + ACK
2.631490041666666,I2C,0x6D + ACK
2.631515083333333,I2C,0x01 + ACK
2.634768375000000,I2C,Setup Write to [0xC0] + ACK
2.634793333333334,I2C,0x25 + ACK
2.634818500000000,I2C,0x02 + ACK
2.634843666666667,I2C,0x53 + ACK
2.634868750000000,I2C,0x59 + ACK
2.634893833333333,I2C,0x4D + ACK
2.634925416666666,I2C,Setup Write to [0xC0] + ACK
2.634950333333333,I2C,0x2D + ACK
2.634975416666667,I2C,0x01 + ACK
2.635007291666667,I2C,Setup Write to [0xC0] + ACK
2.635032250000000,I2C,0x65 + ACK
2.635057375000000,I2C,0x02 + ACK
2.635082541666667,I2C,0x53 + ACK
2.635107625000000,I2C,0x5D + ACK
2.635132708333333,I2C,0x3E + ACK
2.635164250000000,I2C,Setup Write to [0xC0] + ACK
2.635189208333333,I2C,0x6D + ACK
2.635214291666667,I2C,0x01 + ACK
2.638471208333333,I2C,Setup Write to [0xC0] + ACK
2.638496166666667,I2C,0x25 + ACK
2.638521333333333,I2C,0x02 + ACK
2.638546458333333,I2C,0xC7 + ACK
2.638571541666667,I2C,0x1C + ACK
2.638596625000000,I2C,0x72 + ACK
2.638628208333333,I2C,Setup Write to [0xC0] + ACK
2.638653125000000,I2C,0x2D + ACK
2.638678250000000,I2C,0x01 + ACK
2.638710083333333,I2C,Setup Write to [0xC0] + ACK
2.638735041666667,I2C,0x65 + ACK
2.638760166666667,I2C,0x02 + ACK
2.638785333333333,I2C,0xC7 + ACK
2.638810375000000,I2C,0x22 + ACK
2.638835500000000,I2C,0x10 + ACK
2.638867125000000,I2C,Setup Write to [0xC0] + ACK
2.638892041666667,I2C,0x6D + ACK
2.638917125000000,I2C,0x01 + ACK
2.642166583333333,I2C,Setup Write to [0xC0] + ACK
2.642191541666667,I2C,0x25 + ACK
2.642216708333333,I2C,0x02 + ACK
2.642241833333333,I2C,0x61 + ACK
2.642266916666667,I2C,0x86 + ACK
2.642292041666667,I2C,0x18 + ACK
2.642323625000000,I2C,Setup Write to [0xC0] + ACK
2.642348583333333,I2C,0x2D + ACK
2.642373708333333,I2C,0x01 + ACK
2.642405541666667,I2C,Setup Write to [0xC0] + ACK
2.642430500000000,I2C,0x65 + ACK
2.642455625000000,I2C,0x02 + ACK
2.642480791666667,I2C,0x61 + ACK
2.642505875000000,I2C,0x8A + ACK
2.642531000000000,I2C,0x39 + ACK
2.642562583333333,I2C,Setup Write to [0xC0] + ACK
2.642587500000000,I2C,0x6D + ACK
2.642612583333333,I2C,0x01 + ACK
2.645866000000000,I2C,Setup Write to [0xC0] + ACK
2.645890958333333,I2C,0x25 + ACK
2.645916125000000,I2C,0x02 + ACK
2.645941291666666,I2C,0x55 + ACK
2.645966333333333,I2C,0xAA + ACK
2.645991458333333,I2C,0x56 + ACK
2.646023000000000,I2C,Setup Write to [0xC0] + ACK
2.646047958333333,I2C,0x2D + ACK
2.646073041666666,I2C,0x01 + ACK
2.646104916666667,I2C,Setup Write to [0xC0] + ACK
2.646129875000000,I2C,0x65 + ACK
2.646155000000000,I2C,0x02 + ACK
2.646180166666667,I2C,0x55 + ACK
2.646205250000000,I2C,0xAE + ACK
2.646230333333333,I2C,0x4E + ACK
2.646261875000000,I2C,Setup Write to [0xC0] + ACK
2.646286833333333,I2C,0x6D + ACK
2.646311875000000,I2C,0x01 + ACK
2.649565166666667,I2C,Setup Write to [0xC0] + ACK
2.649590125000000,I2C,0x25 + ACK
2.649615291666667,I2C,0x02 + ACK
2.649640458333333,I2C,0x53 + ACK
2.649665541666667,I2C,0x59 + ACK
2.649690625000000,I2C,0x4D + ACK
2.649722166666667,I2C,Setup Write to [0xC0] + ACK
2.649747125000000,I2C,0x2D + ACK
2.649772208333333,I2C,0x01 + ACK
2.649804083333333,I2C,Setup Write to [0xC0] + ACK
2.649829041666667,I2C,0x65 + ACK
2.649854166666667,I2C,0x02 + ACK
2.649879333333333,I2C,0x53 + ACK
2.649904416666667,I2C,0x5D + ACK
2.649929500000000,I2C,0x3E + ACK
2.649961041666667,I2C,Setup Write to [0xC0] + ACK
2.649986000000000,I2C,0x6D + ACK
2.650011083333333,I2C,0x01 + ACK
2.653268125000000,I2C,Setup Write to [0xC0] + ACK
2.653293083333333,I2C,0x25 + ACK
2.653318250000000,I2C,0x02 + ACK
2.653343375000000,I2C,0xC7 + ACK
2.653368458333333,I2C,0x1C + ACK
2.653393583333334,I2C,0x72 + ACK
2.653425166666667,I2C,Setup Write to [0xC0] + ACK
2.653450083333333,I2C,0x2D + ACK
2.653475208333334,I2C,0x01 + ACK
2.653507083333333,I2C,Setup Write to [0xC0] + ACK
2.653532041666667,I2C,0x65 + ACK
2.653557166666667,I2C,0x02 + ACK
2.653582333333333,I2C,0xC7 + ACK
2.653607416666667,I2C,0x22 + ACK
2.653632541666667,I2C,0x10 + ACK
2.653664166666667,I2C,Setup Write to [0xC0] + ACK
2.653689125000000,I2C,0x6D + ACK
2.653714208333333,I2C,0x01 + ACK
2.656964791666667,I2C,Setup Write to [0xC0] + ACK
2.656989750000000,I2C,0x25 + ACK
2.657014916666667,I2C,0x02 + ACK
2.657040083333333,I2C,0x61 + ACK
2.657065166666666,I2C,0x86 + ACK
2.657090291666667,I2C,0x18 + ACK
2.657121916666667,I2C,Setup Write to [0xC0] + ACK
2.657146833333333,I2C,0x2D + ACK
2.657171958333334,I2C,0x01 + ACK
2.657203833333333,I2C,Setup Write to [0xC0] + ACK
2.657228791666667,I2C,0x65 + ACK
2.657253916666667,I2C,0x02 + ACK
2.657279083333334,I2C,0x61 + ACK
2.657304166666667,I2C,0x8A + ACK
2.657329291666667,I2C,0x39 + ACK
2.657360875000000,I2C,Setup Write to [0xC0] + ACK
2.657385833333333,I2C,0x6D + ACK
2.657410916666667,I2C,0x01 + ACK
2.660664583333333,I2C,Setup Write to [0xC0] + ACK
2.660689541666667,I2C,0x25 + ACK
2.660714666666667,I2C,0x02 + ACK
2.660739833333333,I2C,0x55 + ACK
2.660764916666666,I2C,0xAA + ACK
2.660790000000000,I2C,0x56 + ACK
2.660821583333334,I2C,Setup Write to [0xC0] + ACK
2.660846500000000,I2C,0x2D + ACK
2.660871625000000,I2C,0x01 + ACK
2.660903458333333,I2C,Setup Write to [0xC0] + ACK
2.660928416666667,I2C,0x65 + ACK
2.660953583333333,I2C,0x02 + ACK
2.660978750000000,I2C,0x55 + ACK
2.661003833333333,I2C,0xAE + ACK
2.661028916666667,I2C,0x4E + ACK
2.661060458333333,I2C,Setup Write to [0xC0] + ACK
2.661085416666667,I2C,0x6D + ACK
2.661110500000000,I2C,0x01 + ACK
2.664363791666667,I2C,Setup Write to [0xC0] + ACK
2.664388750000000,I2C,0x25 + ACK
2.664413916666667,I2C,0x02 + ACK
2.664439083333333,I2C,0x53 + ACK
2.664464166666667,I2C,0x59 + ACK
2.664489250000000,I2C,0x4D + ACK
2.664520833333333,I2C,Setup Write to [0xC0] + ACK
2.664545791666667,I2C,0x2D + ACK
2.664570875000000,I2C,0x01 + ACK
2.664602750000000,I2C,Setup Write to [0xC0] + ACK
2.664627708333333,I2C,0x65 + ACK
2.664652875000000,I2C,0x02 + ACK
2.664678041666667,I2C,0x53 + ACK
2.664703125000000,I2C,0x5D + ACK
2.664728166666666,I2C,0x3E + ACK
2.664759750000000,I2C,Setup Write to [0xC0] + ACK
2.664784708333333,I2C,0x6D + ACK
2.664809791666667,I2C,0x01 + ACK
2.668066833333333,I2C,Setup Write to [0xC0] + ACK
2.668091750000000,I2C,0x25 + ACK
2.668116916666667,I2C,0x02 + ACK
2.668142083333333,I2C,0xC7 + ACK
2.668167166666667,I2C,0x1C + ACK
2.668192250000000,I2C,0x72 + ACK
2.668223833333333,I2C,Setup Write to [0xC0] + ACK
2.668248750000000,I2C,0x2D + ACK
2.668273875000000,I2C,0x01 + ACK
2.668305750000000,I2C,Setup Write to [0xC0] + ACK
2.668330666666667,I2C,0x65 + ACK
2.668355833333333,I2C,0x02 + ACK
2.668380958333334,I2C,0xC7 + ACK
2.668406041666667,I2C,0x22 + ACK
2.668431166666667,I2C,0x10 + ACK
2.668462750000000,I2C,Setup Write to [0xC0] + ACK
2.668487708333333,I2C,0x6D + ACK
2.668512791666667,I2C,0x01 + ACK
2.671761833333334,I2C,Setup Write to [0xC0] + ACK
2.671786791666667,I2C,0x25 + ACK
2.671811916666667,I2C,0x02 + ACK
2.671837083333333,I2C,0x61 + ACK
2.671862166666667,I2C,0x86 + ACK
2.671887291666667,I2C,0x18 + ACK
2.671918875000000,I2C,Setup Write to [0xC0] + ACK
2.671943791666667,I2C,0x2D + ACK
2.671968875000000,I2C,0x01 + ACK
2.672000750000000,I2C,Setup Write to [0xC0] + ACK
2.672025666666667,I2C,0x65 + ACK
2.672050833333333,I2C,0x02 + ACK
2.672076000000000,I2C,0x61 + ACK
2.672101083333333,I2C,0x8A + ACK
2.672126166666667,I2C,0x39 + ACK
2.672157708333333,I2C,Setup Write to [0xC0] + ACK
2.672182666666667,I2C,0x6D + ACK
2.672207750000000,I2C,0x01 + ACK
2.675460625000000,I2C,Setup Write to [0xC0] + ACK
2.675485583333333,I2C,0x25 + ACK
2.675510750000000,I2C,0x02 + ACK
2.675535875000000,I2C,0x55 + ACK
2.675560958333334,I2C,0xAA + ACK
2.675586083333333,I2C,0x56 + ACK
2.675617625000000,I2C,Setup Write to [0xC0] + ACK
2.675642583333333,I2C,0x2D + ACK
2.675667666666667,I2C,0x01 + ACK
2.675699541666666,I2C,Setup Write to [0xC0] + ACK
2.675724458333333,I2C,0x65 + ACK
2.675749625000000,I2C,0x02 + ACK
2.675774791666667,I2C,0x55 + ACK
2.675799833333333,I2C,0xAE + ACK
2.675824916666667,I2C,0x4E + ACK
2.675856500000000,I2C,Setup Write to [0xC0] + ACK
2.675881416666666,I2C,0x6D + ACK
2.675906500000000,I2C,0x01 + ACK
2.679159416666667,I2C,Setup Write to [0xC0] + ACK
2.679184375000000,I2C,0x25 + ACK
2.679209541666667,I2C,0x02 + ACK
2.679234666666667,I2C,0x53 + ACK
2.679259750000000,I2C,0x59 + ACK
2.679284833333333,I2C,0x4D + ACK
2.679316416666667,I2C,Setup Write to [0xC0] + ACK
2.679341333333333,I2C,0x2D + ACK
2.679366458333333,I2C,0x01 + ACK
2.679398333333333,I2C,Setup Write to [0xC0] + ACK
2.679423250000000,I2C,0x65 + ACK
2.679448416666667,I2C,0x02 + ACK
2.679473583333333,I2C,0x53 + ACK
2.679498666666666,I2C,0x5D + ACK
2.679523708333333,I2C,0x3E + ACK
2.679555250000000,I2C,Setup Write to [0xC0] + ACK
2.679580208333333,I2C,0x6D + ACK
2.679605291666667,I2C,0x01 + ACK
2.682861958333334,I2C,Setup Write to [0xC0] + ACK
2.682886875000000,I2C,0x25 + ACK
2.682912041666667,I2C,0x02 + ACK
2.682937166666667,I2C,0xC7 + ACK
2.682962250000000,I2C,0x1C + ACK
2.682987333333333,I2C,0x72 + ACK
2.683018875000000,I2C,Setup Write to [0xC0] + ACK
2.683043833333334,I2C,0x2D + ACK
2.683068916666667,I2C,0x01 + ACK
2.683100791666666,I2C,Setup Write to [0xC0] + ACK
2.683125708333333,I2C,0x65 + ACK
2.683150875000000,I2C,0x02 + ACK
2.683176000000000,I2C,0xC7 + ACK
2.683201083333334,I2C,0x22 + ACK
2.683226166666667,I2C,0x10 + ACK
2.683257791666667,I2C,Setup Write to [0xC0] + ACK
2.683282708333333,I2C,0x6D + ACK
2.683307791666667,I2C,0x01 + ACK
2.686556750000000,I2C,Setup Write to [0xC0] + ACK
2.686581666666667,I2C,0x25 + ACK
2.686606833333333,I2C,0x02 + ACK
2.686632000000000,I2C,0x61 + ACK
2.686657083333333,I2C,0x86 + ACK
2.686682208333333,I2C,0x18 + ACK
2.686713791666667,I2C,Setup Write to [0xC0] + ACK
2.686738708333333,I2C,0x2D + ACK
2.686763833333333,I2C,0x01 + ACK
2.686795708333333,I2C,Setup Write to [0xC0] + ACK
2.686820666666667,I2C,0x65 + ACK
2.686845791666667,I2C,0x02 + ACK
2.686870958333333,I2C,0x61 + ACK
2.686896041666667,I2C,0x8A + ACK
2.686921166666667,I2C,0x39 + ACK
2.686952708333334,I2C,Setup Write to [0xC0] + ACK
2.686977666666666,I2C,0x6D + ACK
2.687002750000000,I2C,0x01 + ACK
2.690255791666667,I2C,Setup Write to [0xC0] + ACK
2.690280708333333,I2C,0x25 + ACK
2.690305875000000,I2C,0x02 + ACK
2.690331041666667,I2C,0x55 + ACK
2.690356083333334,I2C,0xAA + ACK
2.690381208333333,I2C,0x56 + ACK
2.690412750000000,I2C,Setup Write to [0xC0] + ACK
2.690437666666667,I2C,0x2D + ACK
2.690462791666667,I2C,0x01 + ACK
2.690494666666666,I2C,Setup Write to [0xC0] + ACK
2.690519583333333,I2C,0x65 + ACK
2.690544750000000,I2C,0x02 + ACK
2.690569916666667,I2C,0x55 + ACK
2.690594958333334,I2C,0xAE + ACK
2.690620041666667,I2C,0x4E + ACK
2.690651625000000,I2C,Setup Write to [0xC0] + ACK
2.690676541666666,I2C,0x6D + ACK
2.690701625000000,I2C,0x01 + ACK
2.693954666666666,I2C,Setup Write to [0xC0] + ACK
2.693979625000000,I2C,0x25 + ACK
2.694004791666667,I2C,0x02 + ACK
2.694029958333333,I2C,0x53 + ACK
2.694055041666667,I2C,0x59 + ACK
2.694080125000000,I2C,0x4D + ACK
2.694111666666667,I2C,Setup Write to [0xC0] + ACK
2.694136625000000,I2C,0x2D + ACK
2.694161708333333,I2C,0x01 + ACK
2.694193583333333,I2C,Setup Write to [0xC0] + ACK
2.694218541666667,I2C,0x65 + ACK
2.694243666666666,I2C,0x02 + ACK
2.694268833333333,I2C,0x53 + ACK
2.694293916666667,I2C,0x5D + ACK
2.694319000000000,I2C,0x3E + ACK
2.694350541666667,I2C,Setup Write to [0xC0] + ACK
2.694375458333333,I2C,0x6D + ACK
2.694400541666667,I2C,0x01 + ACK
2.697657916666667,I2C,Setup Write to [0xC0] + ACK
2.697682833333333,I2C,0x25 + ACK
2.697708000000000,I2C,0x02 + ACK
2.697733166666667,I2C,0xC7 + ACK
2.697758250000000,I2C,0x1C + ACK
2.697783375000000,I2C,0x72 + ACK
2.697814916666667,I2C,Setup Write to [0xC0] + ACK
2.697839875000000,I2C,0x2D + ACK
2.697864958333333,I2C,0x01 + ACK
2.697896875000000,I2C,Setup Write to [0xC0] + ACK
2.697921791666666,I2C,0x65 + ACK
2.697946958333334,I2C,0x02 + ACK
2.697972125000000,I2C,0xC7 + ACK
2.697997208333333,I2C,0x22 + ACK
2.698022333333333,I2C,0x10 + ACK
2.698053916666667,I2C,Setup Write to [0xC0] + ACK
2.698078875000000,I2C,0x6D + ACK
2.698103958333333,I2C,0x01 + ACK
2.701353541666667,I2C,Setup Write to [0xC0] + ACK
2.701378500000000,I2C,0x25 + ACK
2.701403625000000,I2C,0x02 + ACK
2.701428791666667,I2C,0x61 + ACK
2.701453875000000,I2C,0x86 + ACK
2.701479000000000,I2C,0x18 + ACK
2.701510625000000,I2C,Setup Write to [0xC0] + ACK
2.701535583333333,I2C,0x2D + ACK
2.701560666666666,I2C,0x01 + ACK
2.701592541666667,I2C,Setup Write to [0xC0] + ACK
2.701617500000000,I2C,0x65 + ACK
2.701642625000000,I2C,0x02 + ACK
2.701667791666666,I2C,0x61 + ACK
2.701692875000000,I2C,0x8A + ACK
2.701718000000000,I2C,0x39 + ACK
2.701749583333333,I2C,Setup Write to [0xC0] + ACK
2.701774500000000,I2C,0x6D + ACK
2.701799583333333,I2C,0x01 + ACK
2.705053166666667,I2C,Setup Write to [0xC0] + ACK
2.705078125000000,I2C,0x25 + ACK
2.705103291666667,I2C,0x02 + ACK
2.705128458333333,I2C,0x55 + ACK
2.705153500000000,I2C,0xAA + ACK
2.705178583333333,I2C,0x56 + ACK
2.705210166666667,I2C,Setup Write to [0xC0] + ACK
2.705235083333333,I2C,0x2D + ACK
2.705260166666667,I2C,0x01 + ACK
2.705292041666667,I2C,Setup Write to [0xC0] + ACK
2.705317000000000,I2C,0x65 + ACK
2.705342125000000,I2C,0x02 + ACK
2.705367291666667,I2C,0x55 + ACK
2.705392375000000,I2C,0xAE + ACK
2.705417458333333,I2C,0x4E + ACK
2.705449000000000,I2C,Setup Write to [0xC0] + ACK
2.705473958333333,I2C,0x6D + ACK
2.705499041666667,I2C,0x01 + ACK
2.708752416666667,I2C,Setup Write to [0xC0] + ACK
2.708777375000000,I2C,0x25 + ACK
2.708802541666667,I2C,0x02 + ACK
2.708827666666667,I2C,0x53 + ACK
2.708852750000000,I2C,0x59 + ACK
2.708877833333333,I2C,0x4D + ACK
2.708909416666667,I2C,Setup Write to [0xC0] + ACK
2.708934333333334,I2C,0x2D + ACK
2.708959458333333,I2C,0x01 + ACK
2.708991333333334,I2C,Setup Write to [0xC0] + ACK
2.709016291666666,I2C,0x65 + ACK
2.709041416666667,I2C,0x02 + ACK
2.709066583333333,I2C,0x53 + ACK
2.709091666666667,I2C,0x5D + ACK
2.709116750000000,I2C,0x3E + ACK
2.709148291666667,I2C,Setup Write to [0xC0] + ACK
2.709173208333334,I2C,0x6D + ACK
2.709198291666667,I2C,0x01 + ACK
2.712455583333333,I2C,Setup Write to [0xC0] + ACK
2.712480541666667,I2C,0x25 + ACK
2.712505708333333,I2C,0x02 + ACK
2.712530833333333,I2C,0xC7 + ACK
2.712555916666667,I2C,0x1C + ACK
2.712581041666667,I2C,0x72 + ACK
2.712612583333333,I2C,Setup Write to [0xC0] + ACK
2.712637541666667,I2C,0x2D + ACK
2.712662625000000,I2C,0x01 + ACK
2.712694500000000,I2C,Setup Write to [0xC0] + ACK
2.712719458333333,I2C,0x65 + ACK
2.712744583333333,I2C,0x02 + ACK
2.712769750000000,I2C,0xC7 + ACK
2.712794833333333,I2C,0x22 + ACK
2.712819958333333,I2C,0x10 + ACK
2.712851541666667,I2C,Setup Write to [0xC0] + ACK
2.712876500000000,I2C,0x6D + ACK
2.712901583333333,I2C,0x01 + ACK
2.716151083333334,I2C,Setup Write to [0xC0] + ACK
2.716176000000000,I2C,0x25 + ACK
2.716201166666667,I2C,0x02 + ACK
2.716226333333333,I2C,0x61 + ACK
2.716251375000000,I2C,0x86 + ACK
2.716276500000000,I2C,0x18 + ACK
2.716308125000000,I2C,Setup Write to [0xC0] + ACK
2.716333041666667,I2C,0x2D + ACK
2.716358166666667,I2C,0x01 + ACK
2.716390041666667,I2C,Setup Write to [0xC0] + ACK
2.716414958333333,I2C,0x65 + ACK
2.716440083333334,I2C,0x02 + ACK
2.716465250000000,I2C,0x61 + ACK
2.716490333333333,I2C,0x8A + ACK
2.716515458333333,I2C,0x39 + ACK
2.716547000000000,I2C,Setup Write to [0xC0] + ACK
2.716571958333333,I2C,0x6D + ACK
2.716597041666667,I2C,0x01 + ACK
2.719850041666667,I2C,Setup Write to [0xC0] + ACK
2.719875000000000,I2C,0x25 + ACK
2.719900166666667,I2C,0x02 + ACK
2.719925333333333,I2C,0x55 + ACK
2.719950416666667,I2C,0xAA + ACK
2.719975500000000,I2C,0x56 + ACK
2.720007083333333,I2C,Setup Write to [0xC0] + ACK
2.720032000000000,I2C,0x2D + ACK
2.720057125000000,I2C,0x01 + ACK
2.720089000000000,I2C,Setup Write to [0xC0] + ACK
2.720113916666667,I2C,0x65 + ACK
2.720139083333333,I2C,0x02 + ACK
2.720164250000000,I2C,0x55 + ACK
2.720189291666667,I2C,0xAE + ACK
2.720214375000000,I2C,0x4E + ACK
2.720245958333333,I2C,Setup Write to [0xC0] + ACK
2.720270875000000,I2C,0x6D + ACK
2.720295958333333,I2C,0x01 + ACK
2.723549375000000,I2C,Setup Write to [0xC0] + ACK
2.723574333333334,I2C,0x25 + ACK
2.723599500000000,I2C,0x02 + ACK
2.723624666666667,I2C,0x53 + ACK
2.723649750000000,I2C,0x59 + ACK
2.723674833333333,I2C,0x4D + ACK
2.723706375000000,I2C,Setup Write to [0xC0] + ACK
2.723731333333333,I2C,0x2D + ACK
2.723756416666667,I2C,0x01 + ACK
2.723788291666667,I2C,Setup Write to [0xC0] + ACK
2.723813250000000,I2C,0x65 + ACK
2.723838416666667,I2C,0x02 + ACK
2.723863541666667,I2C,0x53 + ACK
2.723888625000000,I2C,0x5D + ACK
2.723913708333333,I2C,0x3E + ACK
2.723945250000000,I2C,Setup Write to [0xC0] + ACK
2.723970208333333,I2C,0x6D + ACK
2.723995291666667,I2C,0x01 + ACK
2.727251833333333,I2C,Setup Write to [0xC0] + ACK
2.727276750000000,I2C,0x25 + ACK
2.727301916666667,I2C,0x02 + ACK
2.727327083333333,I2C,0xC7 + ACK
2.727352166666666,I2C,0x1C + ACK
2.727377250000000,I2C,0x72 + ACK
2.727408791666666,I2C,Setup Write to [0xC0] + ACK
2.727433750000000,I2C,0x2D + ACK
2.727458833333333,I2C,0x01 + ACK
2.727490708333333,I2C,Setup Write to [0xC0] + ACK
2.727515666666667,I2C,0x65 + ACK
2.727540791666667,I2C,0x02 + ACK
2.727565958333333,I2C,0xC7 + ACK
2.727591041666667,I2C,0x22 + ACK
2.727616125000000,I2C,0x10 + ACK
2.727647750000000,I2C,Setup Write to [0xC0] + ACK
2.727672708333333,I2C,0x6D + ACK
2.727697791666666,I2C,0x01 + ACK
2.730947083333333,I2C,Setup Write to [0xC0] + ACK
2.730972000000000,I2C,0x25 + ACK
2.730997166666667,I2C,0x02 + ACK
2.731022333333333,I2C,0x61 + ACK
2.731047416666667,I2C,0x86 + ACK
2.731072541666667,I2C,0x18 + ACK
2.731104125000000,I2C,Setup Write to [0xC0] + ACK
2.731129083333333,I2C,0x2D + ACK
2.731154166666667,I2C,0x01 + ACK
2.731186041666667,I2C,Setup Write to [0xC0] + ACK
2.731211000000000,I2C,0x65 + ACK
2.731236125000000,I2C,0x02 + ACK
2.731261291666667,I2C,0x61 + ACK
2.731286375000000,I2C,0x8A + ACK
2.731311500000000,I2C,0x39 + ACK
2.731343083333333,I2C,Setup Write to [0xC0] + ACK
2.731368000000000,I2C,0x6D + ACK
2.731393083333333,I2C,0x01 + ACK
2.734646666666666,I2C,Setup Write to [0xC0] + ACK
2.734671625000000,I2C,0x25 + ACK
2.734696750000000,I2C,0x02 + ACK
2.734721916666667,I2C,0x55 + ACK
2.734747000000000,I2C,0xAA + ACK
2.734772125000000,I2C,0x56 + ACK
2.734803666666667,I2C,Setup Write to [0xC0] + ACK
2.734828625000000,I2C,0x2D + ACK
2.734853708333334,I2C,0x01 + ACK
2.734885583333333,I2C,Setup Write to [0xC0] + ACK
2.734910541666667,I2C,0x65 + ACK
2.734935666666667,I2C,0x02 + ACK
2.734960833333334,I2C,0x55 + ACK
2.734985916666667,I2C,0xAE + ACK
2.735011000000000,I2C,0x4E + ACK
2.735042541666667,I2C,Setup Write to [0xC0] + ACK
2.735067500000000,I2C,0x6D + ACK
2.735092583333333,I2C,0x01 + ACK
2.738346458333333,I2C,Setup Write to [0xC0] + ACK
2.738371416666667,I2C,0x25 + ACK
2.738396583333333,I2C,0x02 + ACK
2.738421750000000,I2C,0x53 + ACK
2.738446875000000,I2C,0x59 + ACK
2.738471958333333,I2C,0x4D + ACK
2.738503541666667,I2C,Setup Write to [0xC0] + ACK
2.738528458333333,I2C,0x2D + ACK
2.738553583333333,I2C,0x01 + ACK
2.738585458333333,I2C,Setup Write to [0xC0] + ACK
2.738610416666666,I2C,0x65 + ACK
2.738635541666667,I2C,0x02 + ACK
2.738660708333333,I2C,0x53 + ACK
2.738685833333333,I2C,0x5D + ACK
2.738710875000000,I2C,0x3E + ACK
2.738742416666667,I2C,Setup Write to [0xC0] + ACK
2.738767375000000,I2C,0x6D + ACK
2.738792458333333,I2C,0x01 + ACK
2.742049791666667,I2C,Setup Write to [0xC0] + ACK
2.742074750000000,I2C,0x25 + ACK
2.742099916666667,I2C,0x02 + ACK
2.742125041666667,I2C,0xC7 + ACK
2.742150166666667,I2C,0x1C + ACK
2.742175250000000,I2C,0x72 + ACK
2.742206833333333,I2C,Setup Write to [0xC0] + ACK
2.742231791666667,I2C,0x2D + ACK
2.742256875000000,I2C,0x01 + ACK
2.742288750000000,I2C,Setup Write to [0xC0] + ACK
2.742313708333334,I2C,0x65 + ACK
2.742338875000000,I2C,0x02 + ACK
2.742364000000000,I2C,0xC7 + ACK
2.742389083333333,I2C,0x22 + ACK
