Time [s], Analyzer Name, Decoded Protocol Result
0.000002562500000,I2C,Setup Write to [0xC0] + ACK
0.000026125000000,I2C,0xBC + ACK
0.000049687500000,I2C,0x00 + ACK
0.000078500000000,I2C,Setup Write to [0xC0] + ACK
0.000102000000000,I2C,0xBB + ACK
0.000125562500000,I2C,0x00 + ACK
0.000154375000000,I2C,Setup Write to [0xC0] + ACK
0.000177875000000,I2C,0x03 + ACK
0.000201437500000,I2C,0xFF + ACK
0.000230250000000,I2C,Setup Write to [0xC0] + ACK
0.000253750000000,I2C,0xBB + ACK
0.000277312500000,I2C,0xC0 + ACK
0.000306125000000,I2C,Setup Write to [0xC0] + ACK
0.000329687500000,I2C,0x0F + ACK
0.000353187500000,I2C,0x00 + ACK
0.000376750000000,I2C,0x4F + ACK
0.000400250000000,I2C,0x80 + ACK
0.000423812500000,I2C,0x6F + ACK
0.000447375000000,I2C,0x80 + ACK
0.000470875000000,I2C,0x80 + ACK
0.000494437500000,I2C,0x80 + ACK
0.000518000000000,I2C,0x80 + ACK
0.000541500000000,I2C,0x80 + ACK
0.000565062500000,I2C,0xAA + ACK
0.000588562500000,I2C,0xFF + ACK
0.000612125000000,I2C,0x3D + ACK
0.000635687500000,I2C,0x09 + ACK
0.000659187500000,I2C,0x00 + ACK
0.000682750000000,I2C,0x0A + ACK
0.000706250000000,I2C,0xF5 + ACK
0.000729812500000,I2C,0x00 + ACK
0.000753375000000,I2C,0x14 + ACK
0.000776875000000,I2C,0xE2 + ACK
0.000800437500000,I2C,0x7A + ACK
0.000823937500000,I2C,0x12 + ACK
0.000847500000000,I2C,0x00 + ACK
0.000871062500000,I2C,0x0A + ACK
0.000894562500000,I2C,0xF5 + ACK
0.000918125000000,I2C,0x00 + ACK
0.000941625000000,I2C,0x1D + ACK
0.000965187500000,I2C,0x45 + ACK
0.000988750000000,I2C,0x00 + ACK
0.001012250000000,I2C,0x01 + ACK
0.001035812500000,I2C,0x0C + ACK
0.001059312500000,I2C,0x00 + ACK
0.001082875000000,I2C,0x00 + ACK
0.001106437500000,I2C,0x00 + ACK
0.001129937500000,I2C,0x00 + ACK
0.001153500000000,I2C,0x00 + ACK
0.001177000000000,I2C,0x00 + ACK
0.001200562500000,I2C,0x00 + ACK
0.001224125000000,I2C,0x00 + ACK
0.001247625000000,I2C,0x00 + ACK
0.001271187500000,I2C,0x00 + ACK
0.001294687500000,I2C,0x00 + ACK
0.001318250000000,I2C,0x00 + ACK
0.001341812500000,I2C,0x00 + ACK
0.001365312500000,I2C,0x00 + ACK
0.001388875000000,I2C,0x01 + ACK
0.001412375000000,I2C,0x0C + ACK
0.001435937500000,I2C,0x00 + ACK
0.001459500000000,I2C,0x00 + ACK
0.001483000000000,I2C,0x00 + ACK
0.011427187500000,I2C,Setup Write to [0xC0] + ACK
0.011450687500000,I2C,0xB1 + ACK
0.011474250000000,I2C,0xAC + ACK
0.011503062500000,I2C,Setup Write to [0xC0] + ACK
0.011526625000000,I2C,0x03 + ACK
0.011550125000000,I2C,0xFA + ACK
0.058473875000000,I2C,Setup Write to [0xC0] + ACK
0.058497375000000,I2C,0x03 + ACK
0.058520937500000,I2C,0xFF + ACK
0.058549750000000,I2C,Setup Write to [0xC0] + ACK
0.058573312500000,I2C,0xBB + ACK
0.058596812500000,I2C,0xC0 + ACK
0.058625625000000,I2C,Setup Write to [0xC0] + ACK
0.058649187500000,I2C,0x0F + ACK
0.058672687500000,I2C,0x00 + ACK
0.058696250000000,I2C,0x4F + ACK
0.058719750000000,I2C,0x80 + ACK
0.058743312500000,I2C,0x6F + ACK
0.058766875000000,I2C,0x80 + ACK
0.058790375000000,I2C,0x80 + ACK
0.058813937500000,I2C,0x80 + ACK
0.058837437500000,I2C,0x80 + ACK
0.058861000000000,I2C,0x80 + ACK
0.058884562500000,I2C,0xAA + ACK
0.058908062500000,I2C,0xFF + ACK
0.058931625000000,I2C,0x7A + ACK
0.058955187500000,I2C,0x12 + ACK
0.058978687500000,I2C,0x00 + ACK
0.059002250000000,I2C,0x0D + ACK
0.059025750000000,I2C,0x1E + ACK
0.059049312500000,I2C,0x00 + ACK
0.059072875000000,I2C,0x1C + ACK
0.059096375000000,I2C,0x64 + ACK
0.059119937500000,I2C,0x3D + ACK
0.059143437500000,I2C,0x09 + ACK
0.059167000000000,I2C,0x00 + ACK
0.059190500000000,I2C,0x0D + ACK
0.059214062500000,I2C,0x1E + ACK
0.059237625000000,I2C,0x00 + ACK
0.059261125000000,I2C,0x07 + ACK
0.059284687500000,I2C,0xF1 + ACK
0.059308250000000,I2C,0x00 + ACK
0.059331750000000,I2C,0x01 + ACK
0.059355312500000,I2C,0x0C + ACK
0.059378812500000,I2C,0x00 + ACK
0.059402375000000,I2C,0x00 + ACK
0.059425937500000,I2C,0x00 + ACK
0.059449437500000,I2C,0x00 + ACK
0.059473000000000,I2C,0x00 + ACK
0.059496500000000,I2C,0x00 + ACK
0.059520062500000,I2C,0x00 + ACK
0.059543625000000,I2C,0x00 + ACK
0.059567125000000,I2C,0x00 + ACK
0.059590687500000,I2C,0x00 + ACK
0.059614187500000,I2C,0x00 + ACK
0.059637750000000,I2C,0x00 + ACK
0.059661250000000,I2C,0x00 + ACK
0.059684812500000,I2C,0x00 + ACK
0.059708375000000,I2C,0x01 + ACK
0.059731875000000,I2C,0x0C + ACK
0.059755437500000,I2C,0x00 + ACK
0.059779000000000,I2C,0x00 + ACK
0.059802500000000,I2C,0x00 + ACK
0.059831312500000,I2C,Setup Write to [0xC0] + ACK
0.059854875000000,I2C,0xB1 + ACK
0.059878375000000,I2C,0xAC + ACK
0.059907187500000,I2C,Setup Write to [0xC0] + ACK
0.059930750000000,I2C,0x03 + ACK
0.059954250000000,I2C,0xFA + ACK
0.064646437500000,I2C,Setup Write to [0xC0] + ACK
0.064670000000000,I2C,0x03 + ACK
0.064693500000000,I2C,0xFF + ACK
0.064722312500000,I2C,Setup Write to [0xC0] + ACK
0.064745875000000,I2C,0xBB + ACK
0.064769437500000,I2C,0xC0 + ACK
0.064798250000000,I2C,Setup Write to [0xC0] + ACK
0.064821750000000,I2C,0x0F + ACK
0.064845312500000,I2C,0x00 + ACK
0.064868812500000,I2C,0x4F + ACK
0.064892375000000,I2C,0x80 + ACK
0.064915937500000,I2C,0x6F + ACK
0.064939437500000,I2C,0x80 + ACK
0.064963000000000,I2C,0x80 + ACK
0.064986500000000,I2C,0x80 + ACK
0.065010062500000,I2C,0x80 + ACK
0.065033562500000,I2C,0x80 + ACK
0.065057125000000,I2C,0xAA + ACK
0.065080687500000,I2C,0xFF + ACK
0.065104187500000,I2C,0xF4 + ACK
0.065127750000000,I2C,0x24 + ACK
0.065151250000000,I2C,0x00 + ACK
0.065174812500000,I2C,0x0D + ACK
0.065198375000000,I2C,0x6B + ACK
0.065221875000000,I2C,0x00 + ACK
0.065245437500000,I2C,0x05 + ACK
0.065269000000000,I2C,0x73 + ACK
0.065292500000000,I2C,0xF4 + ACK
0.065316062500000,I2C,0x24 + ACK
0.065339562500000,I2C,0x00 + ACK
0.065363125000000,I2C,0x0D + ACK
0.065386687500000,I2C,0x6A + ACK
0.065410187500000,I2C,0x00 + ACK
0.065433750000000,I2C,0xE0 + ACK
0.065457312500000,I2C,0x98 + ACK
0.065480812500000,I2C,0x00 + ACK
0.065504375000000,I2C,0x01 + ACK
0.065527937500000,I2C,0x0C + ACK
0.065551437500000,I2C,0x00 + ACK
0.065575000000000,I2C,0x00 + ACK
0.065598500000000,I2C,0x00 + ACK
0.065622062500000,I2C,0x00 + ACK
0.065645562500000,I2C,0x00 + ACK
0.065669125000000,I2C,0x00 + ACK
0.065692687500000,I2C,0x00 + ACK
0.065716187500000,I2C,0x00 + ACK
0.065739750000000,I2C,0x00 + ACK
0.065763250000000,I2C,0x00 + ACK
0.065786812500000,I2C,0x00 + ACK
0.065810375000000,I2C,0x00 + ACK
0.065833875000000,I2C,0x00 + ACK
0.065857437500000,I2C,0x00 + ACK
0.065880937500000,I2C,0x01 + ACK
0.065904500000000,I2C,0x0C + ACK
0.065928062500000,I2C,0x00 + ACK
0.065951562500000,I2C,0x00 + ACK
0.065975125000000,I2C,0x00 + ACK
0.066003937500000,I2C,Setup Write to [0xC0] + ACK
0.066027437500000,I2C,0xB1 + ACK
0.066051000000000,I2C,0xAC + ACK
0.066079812500000,I2C,Setup Write to [0xC0] + ACK
0.066103375000000,I2C,0x03 + ACK
0.066126875000000,I2C,0xFA + ACK
0.070819187500000,I2C,Setup Write to [0xC0] + ACK
0.070842750000000,I2C,0x03 + ACK
0.070866250000000,I2C,0xFF + ACK
0.070895062500000,I2C,Setup Write to [0xC0] + ACK
0.070918625000000,I2C,0xBB + ACK
0.070942125000000,I2C,0xC0 + ACK
0.070970937500000,I2C,Setup Write to [0xC0] + ACK
0.070994500000000,I2C,0x0F + ACK
0.071018000000000,I2C,0x00 + ACK
0.071041562500000,I2C,0x4F + ACK
0.071065062500000,I2C,0x80 + ACK
0.071088625000000,I2C,0x6F + ACK
0.071112125000000,I2C,0x80 + ACK
0.071135687500000,I2C,0x80 + ACK
0.071159250000000,I2C,0x80 + ACK
0.071182750000000,I2C,0x80 + ACK
0.071206312500000,I2C,0x80 + ACK
0.071229812500000,I2C,0xAA + ACK
0.071253375000000,I2C,0xFF + ACK
0.071276937500000,I2C,0x3D + ACK
0.071300437500000,I2C,0x09 + ACK
0.071324000000000,I2C,0x00 + ACK
0.071347500000000,I2C,0x0D + ACK
0.071371062500000,I2C,0x7A + ACK
0.071394562500000,I2C,0x00 + ACK
0.071418125000000,I2C,0x17 + ACK
0.071441687500000,I2C,0x35 + ACK
0.071465187500000,I2C,0x7A + ACK
0.071488750000000,I2C,0x12 + ACK
0.071512250000000,I2C,0x00 + ACK
0.071535812500000,I2C,0x0D + ACK
0.071559375000000,I2C,0x7A + ACK
0.071582875000000,I2C,0x00 + ACK
0.071606437500000,I2C,0x21 + ACK
0.071630000000000,I2C,0xEC + ACK
0.071653500000000,I2C,0x00 + ACK
0.071677062500000,I2C,0x01 + ACK
0.071700562500000,I2C,0x0C + ACK
0.071724125000000,I2C,0x00 + ACK
0.071747687500000,I2C,0x00 + ACK
0.071771187500000,I2C,0x00 + ACK
0.071794750000000,I2C,0x00 + ACK
0.071818250000000,I2C,0x00 + ACK
0.071841812500000,I2C,0x00 + ACK
0.071865375000000,I2C,0x00 + ACK
0.071888875000000,I2C,0x00 + ACK
0.071912437500000,I2C,0x00 + ACK
0.071935937500000,I2C,0x00 + ACK
0.071959500000000,I2C,0x00 + ACK
0.071983062500000,I2C,0x00 + ACK
0.072006562500000,I2C,0x00 + ACK
0.072030125000000,I2C,0x00 + ACK
0.072053625000000,I2C,0x01 + ACK
0.072077187500000,I2C,0x0C + ACK
0.072100750000000,I2C,0x00 + ACK
0.072124250000000,I2C,0x00 + ACK
0.072147812500000,I2C,0x00 + ACK
0.072176625000000,I2C,Setup Write to [0xC0] + ACK
0.072200125000000,I2C,0xB1 + ACK
0.072223687500000,I2C,0xAC + ACK
0.072252500000000,I2C,Setup Write to [0xC0] + ACK
0.072276000000000,I2C,0x03 + ACK
0.072299562500000,I2C,0xFA + ACK
0.076992375000000,I2C,Setup Write to [0xC0] + ACK
0.077015875000000,I2C,0x03 + ACK
0.077039437500000,I2C,0xFF + ACK
0.077068250000000,I2C,Setup Write to [0xC0] + ACK
0.077091812500000,I2C,0xBB + ACK
0.077115312500000,I2C,0xC0 + ACK
0.077144125000000,I2C,Setup Write to [0xC0] + ACK
0.077167687500000,I2C,0x0F + ACK
0.077191187500000,I2C,0x00 + ACK
0.077214750000000,I2C,0x4F + ACK
0.077238250000000,I2C,0x80 + ACK
0.077261812500000,I2C,0x6F + ACK
0.077285375000000,I2C,0x80 + ACK
0.077308875000000,I2C,0x80 + ACK
0.077332437500000,I2C,0x80 + ACK
0.077355937500000,I2C,0x80 + ACK
0.077379500000000,I2C,0x80 + ACK
0.077403062500000,I2C,0xAA + ACK
0.077426562500000,I2C,0xFF + ACK
0.077450125000000,I2C,0x3D + ACK
0.077473625000000,I2C,0x09 + ACK
0.077497187500000,I2C,0x00 + ACK
0.077520750000000,I2C,0x0A + ACK
0.077544250000000,I2C,0xF5 + ACK
0.077567812500000,I2C,0x00 + ACK
0.077591312500000,I2C,0x14 + ACK
0.077614875000000,I2C,0xE2 + ACK
0.077638437500000,I2C,0x7A + ACK
0.077661937500000,I2C,0x12 + ACK
0.077685500000000,I2C,0x00 + ACK
0.077709062500000,I2C,0x0A + ACK
0.077732562500000,I2C,0xF5 + ACK
0.077756125000000,I2C,0x00 + ACK
0.077779687500000,I2C,0x1D + ACK
0.077803187500000,I2C,0x45 + ACK
0.077826750000000,I2C,0x00 + ACK
0.077850250000000,I2C,0x01 + ACK
0.077873812500000,I2C,0x0C + ACK
0.077897375000000,I2C,0x00 + ACK
0.077920875000000,I2C,0x00 + ACK
0.077944437500000,I2C,0x00 + ACK
0.077968000000000,I2C,0x00 + ACK
0.077991500000000,I2C,0x00 + ACK
0.078015062500000,I2C,0x00 + ACK
0.078038562500000,I2C,0x00 + ACK
0.078062125000000,I2C,0x00 + ACK
0.078085687500000,I2C,0x00 + ACK
0.078109187500000,I2C,0x00 + ACK
0.078132750000000,I2C,0x00 + ACK
0.078156312500000,I2C,0x00 + ACK
0.078179812500000,I2C,0x00 + ACK
0.078203375000000,I2C,0x00 + ACK
0.078226875000000,I2C,0x01 + ACK
0.078250437500000,I2C,0x0C + ACK
0.078273937500000,I2C,0x00 + ACK
0.078297500000000,I2C,0x00 + ACK
0.078321062500000,I2C,0x00 + ACK
0.078349875000000,I2C,Setup Write to [0xC0] + ACK
0.078373375000000,I2C,0xB1 + ACK
0.078396937500000,I2C,0xAC + ACK
0.078425750000000,I2C,Setup Write to [0xC0] + ACK
0.078449250000000,I2C,0x03 + ACK
0.078472812500000,I2C,0xFA + ACK
0.083164625000000,I2C,Setup Write to [0xC0] + ACK
0.083188187500000,I2C,0x03 + ACK
0.083211687500000,I2C,0xFF + ACK
0.083240500000000,I2C,Setup Write to [0xC0] + ACK
0.083264062500000,I2C,0xBB + ACK
0.083287625000000,I2C,0xC0 + ACK
0.083316437500000,I2C,Setup Write to [0xC0] + ACK
0.083339937500000,I2C,0x0F + ACK
0.083363500000000,I2C,0x00 + ACK
0.083387062500000,I2C,0x4F + ACK
0.083410562500000,I2C,0x80 + ACK
0.083434125000000,I2C,0x6F + ACK
0.083457625000000,I2C,0x80 + ACK
0.083481187500000,I2C,0x80 + ACK
0.083504750000000,I2C,0x80 + ACK
0.083528250000000,I2C,0x80 + ACK
0.083551812500000,I2C,0x80 + ACK
0.083575312500000,I2C,0xAA + ACK
0.083598875000000,I2C,0xFF + ACK
0.083622437500000,I2C,0x7A + ACK
0.083645937500000,I2C,0x12 + ACK
0.083669500000000,I2C,0x00 + ACK
0.083693000000000,I2C,0x0D + ACK
0.083716562500000,I2C,0x1E + ACK
0.083740125000000,I2C,0x00 + ACK
0.083763625000000,I2C,0x1C + ACK
0.083787187500000,I2C,0x64 + ACK
0.083810687500000,I2C,0x3D + ACK
0.083834250000000,I2C,0x09 + ACK
0.083857812500000,I2C,0x00 + ACK
0.083881312500000,I2C,0x0D + ACK
0.083904875000000,I2C,0x1E + ACK
0.083928375000000,I2C,0x00 + ACK
0.083951937500000,I2C,0x07 + ACK
0.083975500000000,I2C,0xF1 + ACK
0.083999000000000,I2C,0x00 + ACK
0.084022562500000,I2C,0x01 + ACK
0.084046062500000,I2C,0x0C + ACK
0.084069625000000,I2C,0x00 + ACK
0.084093187500000,I2C,0x00 + ACK
0.084116687500000,I2C,0x00 + ACK
0.084140250000000,I2C,0x00 + ACK
0.084163750000000,I2C,0x00 + ACK
0.084187312500000,I2C,0x00 + ACK
0.084210875000000,I2C,0x00 + ACK
0.084234375000000,I2C,0x00 + ACK
0.084257937500000,I2C,0x00 + ACK
0.084281437500000,I2C,0x00 + ACK
0.084305000000000,I2C,0x00 + ACK
0.084328562500000,I2C,0x00 + ACK
0.084352062500000,I2C,0x00 + ACK
0.084375625000000,I2C,0x00 + ACK
0.084399125000000,I2C,0x01 + ACK
0.084422687500000,I2C,0x0C + ACK
0.084446187500000,I2C,0x00 + ACK
0.084469750000000,I2C,0x00 + ACK
0.084493312500000,I2C,0x00 + ACK
0.084522125000000,I2C,Setup Write to [0xC0] + ACK
0.084545625000000,I2C,0xB1 + ACK
0.084569187500000,I2C,0xAC + ACK
0.084598000000000,I2C,Setup Write to [0xC0] + ACK
0.084621500000000,I2C,0x03 + ACK
0.084645062500000,I2C,0xFA + ACK
0.089337125000000,I2C,Setup Write to [0xC0] + ACK
0.089360687500000,I2C,0x03 + ACK
0.089384187500000,I2C,0xFF + ACK
0.089413000000000,I2C,Setup Write to [0xC0] + ACK
0.089436562500000,I2C,0xBB + ACK
0.089460125000000,I2C,0xC0 + ACK
0.089488937500000,I2C,Setup Write to [0xC0] + ACK
0.089512437500000,I2C,0x0F + ACK
0.089536000000000,I2C,0x00 + ACK
0.089559500000000,I2C,0x4F + ACK
0.089583062500000,I2C,0x80 + ACK
0.089606625000000,I2C,0x6F + ACK
0.089630125000000,I2C,0x80 + ACK
0.089653687500000,I2C,0x80 + ACK
0.089677187500000,I2C,0x80 + ACK
0.089700750000000,I2C,0x80 + ACK
0.089724250000000,I2C,0x80 + ACK
0.089747812500000,I2C,0xAA + ACK
0.089771312500000,I2C,0xFF + ACK
0.089794875000000,I2C,0xF4 + ACK
0.089818437500000,I2C,0x24 + ACK
0.089841937500000,I2C,0x00 + ACK
0.089865500000000,I2C,0x0D + ACK
0.089889000000000,I2C,0x6B + ACK
0.089912562500000,I2C,0x00 + ACK
0.089936125000000,I2C,0x05 + ACK
0.089959625000000,I2C,0x73 + ACK
0.089983187500000,I2C,0xF4 + ACK
0.090006687500000,I2C,0x24 + ACK
0.090030250000000,I2C,0x00 + ACK
0.090053750000000,I2C,0x0D + ACK
0.090077312500000,I2C,0x6A + ACK
0.090100875000000,I2C,0x00 + ACK
0.090124375000000,I2C,0xE0 + ACK
0.090147937500000,I2C,0x98 + ACK
0.090171437500000,I2C,0x00 + ACK
0.090195000000000,I2C,0x01 + ACK
0.090218500000000,I2C,0x0C + ACK
0.090242062500000,I2C,0x00 + ACK
0.090265625000000,I2C,0x00 + ACK
0.090289125000000,I2C,0x00 + ACK
0.090312687500000,I2C,0x00 + ACK
0.090336187500000,I2C,0x00 + ACK
0.090359750000000,I2C,0x00 + ACK
0.090383250000000,I2C,0x00 + ACK
0.090406812500000,I2C,0x00 + ACK
0.090430312500000,I2C,0x00 + ACK
0.090453875000000,I2C,0x00 + ACK
0.090477375000000,I2C,0x00 + ACK
0.090500937500000,I2C,0x00 + ACK
0.090524437500000,I2C,0x00 + ACK
0.090548000000000,I2C,0x00 + ACK
0.090571562500000,I2C,0x01 + ACK
0.090595062500000,I2C,0x0C + ACK
0.090618625000000,I2C,0x00 + ACK
0.090642125000000,I2C,0x00 + ACK
0.090665687500000,I2C,0x00 + ACK
0.090694500000000,I2C,Setup Write to [0xC0] + ACK
0.090718000000000,I2C,0xB1 + ACK
0.090741562500000,I2C,0xAC + ACK
0.090770375000000,I2C,Setup Write to [0xC0] + ACK
0.090793875000000,I2C,0x03 + ACK
0.090817437500000,I2C,0xFA + ACK
0.095509312500000,I2C,Setup Write to [0xC0] + ACK
0.095532812500000,I2C,0x03 + ACK
0.095556375000000,I2C,0xFF + ACK
0.095585187500000,I2C,Setup Write to [0xC0] + ACK
0.095608687500000,I2C,0xBB + ACK
0.095632250000000,I2C,0xC0 + ACK
0.095661062500000,I2C,Setup Write to [0xC0] + ACK
0.095684562500000,I2C,0x0F + ACK
0.095708125000000,I2C,0x00 + ACK
0.095731687500000,I2C,0x4F + ACK
0.095755187500000,I2C,0x80 + ACK
0.095778750000000,I2C,0x6F + ACK
0.095802250000000,I2C,0x80 + ACK
0.095825812500000,I2C,0x80 + ACK
0.095849375000000,I2C,0x80 + ACK
0.095872875000000,I2C,0x80 + ACK
0.095896437500000,I2C,0x80 + ACK
0.095919937500000,I2C,0xAA + ACK
0.095943500000000,I2C,0xFF + ACK
0.095967000000000,I2C,0x3D + ACK
0.095990562500000,I2C,0x09 + ACK
0.096014125000000,I2C,0x00 + ACK
0.096037625000000,I2C,0x0D + ACK
0.096061187500000,I2C,0x7A + ACK
0.096084687500000,I2C,0x00 + ACK
0.096108250000000,I2C,0x17 + ACK
0.096131750000000,I2C,0x35 + ACK
0.096155312500000,I2C,0x7A + ACK
0.096178875000000,I2C,0x12 + ACK
0.096202375000000,I2C,0x00 + ACK
0.096225937500000,I2C,0x0D + ACK
0.096249437500000,I2C,0x7A + ACK
0.096273000000000,I2C,0x00 + ACK
0.096296562500000,I2C,0x21 + ACK
0.096320062500000,I2C,0xEC + ACK
0.096343625000000,I2C,0x00 + ACK
0.096367125000000,I2C,0x01 + ACK
0.096390687500000,I2C,0x0C + ACK
0.096414250000000,I2C,0x00 + ACK
0.096437750000000,I2C,0x00 + ACK
0.096461312500000,I2C,0x00 + ACK
0.096484812500000,I2C,0x00 + ACK
0.096508375000000,I2C,0x00 + ACK
0.096531937500000,I2C,0x00 + ACK
0.096555437500000,I2C,0x00 + ACK
0.096579000000000,I2C,0x00 + ACK
0.096602500000000,I2C,0x00 + ACK
0.096626062500000,I2C,0x00 + ACK
0.096649625000000,I2C,0x00 + ACK
0.096673125000000,I2C,0x00 + ACK
0.096696687500000,I2C,0x00 + ACK
0.096720187500000,I2C,0x00 + ACK
0.096743750000000,I2C,0x01 + ACK
0.096767312500000,I2C,0x0C + ACK
0.096790812500000,I2C,0x00 + ACK
0.096814375000000,I2C,0x00 + ACK
0.096837875000000,I2C,0x00 + ACK
0.096866687500000,I2C,Setup Write to [0xC0] + ACK
0.096890250000000,I2C,0xB1 + ACK
0.096913812500000,I2C,0xAC + ACK
0.096942625000000,I2C,Setup Write to [0xC0] + ACK
0.096966125000000,I2C,0x03 + ACK
0.096989687500000,I2C,0xFA + ACK
0.101682062500000,I2C,Setup Write to [0xC0] + ACK
0.101705625000000,I2C,0x03 + ACK
0.101729125000000,I2C,0xFF + ACK
0.101757937500000,I2C,Setup Write to [0xC0] + ACK
0.101781500000000,I2C,0xBB + ACK
0.101805000000000,I2C,0xC0 + ACK
0.101833812500000,I2C,Setup Write to [0xC0] + ACK
0.101857375000000,I2C,0x0F + ACK
0.101880875000000,I2C,0x00 + ACK
0.101904437500000,I2C,0x4F + ACK
0.101928000000000,I2C,0x80 + ACK
0.101951500000000,I2C,0x6F + ACK
0.101975062500000,I2C,0x80 + ACK
0.101998562500000,I2C,0x80 + ACK
0.102022125000000,I2C,0x80 + ACK
0.102045687500000,I2C,0x80 + ACK
0.102069187500000,I2C,0x80 + ACK
0.102092750000000,I2C,0xAA + ACK
0.102116250000000,I2C,0xFF + ACK
0.102139812500000,I2C,0x3D + ACK
0.102163312500000,I2C,0x09 + ACK
0.102186875000000,I2C,0x00 + ACK
0.102210375000000,I2C,0x0A + ACK
0.102233937500000,I2C,0xF5 + ACK
0.102257500000000,I2C,0x00 + ACK
0.102281000000000,I2C,0x14 + ACK
0.102304562500000,I2C,0xE2 + ACK
0.102328062500000,I2C,0x7A + ACK
0.102351625000000,I2C,0x12 + ACK
0.102375187500000,I2C,0x00 + ACK
0.102398687500000,I2C,0x0A + ACK
0.102422250000000,I2C,0xF5 + ACK
0.102445750000000,I2C,0x00 + ACK
0.102469312500000,I2C,0x1D + ACK
0.102492812500000,I2C,0x45 + ACK
0.102516375000000,I2C,0x00 + ACK
0.102539937500000,I2C,0x01 + ACK
0.102563437500000,I2C,0x0C + ACK
0.102587000000000,I2C,0x00 + ACK
0.102610500000000,I2C,0x00 + ACK
0.102634062500000,I2C,0x00 + ACK
0.102657625000000,I2C,0x00 + ACK
0.102681125000000,I2C,0x00 + ACK
0.102704687500000,I2C,0x00 + ACK
0.102728187500000,I2C,0x00 + ACK
0.102751750000000,I2C,0x00 + ACK
0.102775312500000,I2C,0x00 + ACK
0.102798812500000,I2C,0x00 + ACK
0.102822375000000,I2C,0x00 + ACK
0.102845875000000,I2C,0x00 + ACK
0.102869437500000,I2C,0x00 + ACK
0.102892937500000,I2C,0x00 + ACK
0.102916500000000,I2C,0x01 + ACK
0.102940062500000,I2C,0x0C + ACK
0.102963562500000,I2C,0x00 + ACK
0.102987125000000,I2C,0x00 + ACK
0.103010625000000,I2C,0x00 + ACK
0.103039437500000,I2C,Setup Write to [0xC0] + ACK
0.103063000000000,I2C,0xB1 + ACK
0.103086500000000,I2C,0xAC + ACK
0.103115312500000,I2C,Setup Write to [0xC0] + ACK
0.103138875000000,I2C,0x03 + ACK
0.103162375000000,I2C,0xFA + ACK
0.107853875000000,I2C,Setup Write to [0xC0] + ACK
0.107877437500000,I2C,0x03 + ACK
0.107900937500000,I2C,0xFF + ACK
0.107929750000000,I2C,Setup Write to [0xC0] + ACK
0.107953312500000,I2C,0xBB + ACK
0.107976812500000,I2C,0xC0 + ACK
0.108005625000000,I2C,Setup Write to [0xC0] + ACK
0.108029187500000,I2C,0x0F + ACK
0.108052687500000,I2C,0x00 + ACK
0.108076250000000,I2C,0x4F + ACK
0.108099812500000,I2C,0x80 + ACK
0.108123312500000,I2C,0x6F + ACK
0.108146875000000,I2C,0x80 + ACK
0.108170375000000,I2C,0x80 + ACK
0.108193937500000,I2C,0x80 + ACK
0.108217437500000,I2C,0x80 + ACK
0.108241000000000,I2C,0x80 + ACK
0.108264562500000,I2C,0xAA + ACK
0.108288062500000,I2C,0xFF + ACK
0.108311625000000,I2C,0x7A + ACK
0.108335125000000,I2C,0x12 + ACK
0.108358687500000,I2C,0x00 + ACK
0.108382187500000,I2C,0x0D + ACK
0.108405750000000,I2C,0x1E + ACK
0.108429312500000,I2C,0x00 + ACK
0.108452812500000,I2C,0x1C + ACK
0.108476375000000,I2C,0x64 + ACK
0.108499875000000,I2C,0x3D + ACK
0.108523437500000,I2C,0x09 + ACK
0.108546937500000,I2C,0x00 + ACK
0.108570500000000,I2C,0x0D + ACK
0.108594062500000,I2C,0x1E + ACK
0.108617562500000,I2C,0x00 + ACK
0.108641125000000,I2C,0x07 + ACK
0.108664625000000,I2C,0xF1 + ACK
0.108688187500000,I2C,0x00 + ACK
0.108711687500000,I2C,0x01 + ACK
0.108735250000000,I2C,0x0C + ACK
0.108758812500000,I2C,0x00 + ACK
0.108782312500000,I2C,0x00 + ACK
0.108805875000000,I2C,0x00 + ACK
0.108829375000000,I2C,0x00 + ACK
0.108852937500000,I2C,0x00 + ACK
0.108876500000000,I2C,0x00 + ACK
0.108900000000000,I2C,0x00 + ACK
0.108923562500000,I2C,0x00 + ACK
0.108947062500000,I2C,0x00 + ACK
0.108970625000000,I2C,0x00 + ACK
0.108994125000000,I2C,0x00 + ACK
0.109017687500000,I2C,0x00 + ACK
0.109041250000000,I2C,0x00 + ACK
0.109064750000000,I2C,0x00 + ACK
0.109088312500000,I2C,0x01 + ACK
0.109111812500000,I2C,0x0C + ACK
0.109135375000000,I2C,0x00 + ACK
0.109158875000000,I2C,0x00 + ACK
0.109182437500000,I2C,0x00 + ACK
0.109211250000000,I2C,Setup Write to [0xC0] + ACK
0.109234750000000,I2C,0xB1 + ACK
0.109258312500000,I2C,0xAC + ACK
0.109287125000000,I2C,Setup Write to [0xC0] + ACK
0.109310687500000,I2C,0x03 + ACK
0.109334187500000,I2C,0xFA + ACK
0.114026125000000,I2C,Setup Write to [0xC0] + ACK
0.114049687500000,I2C,0x03 + ACK
0.114073250000000,I2C,0xFF + ACK
0.114102062500000,I2C,Setup Write to [0xC0] + ACK
0.114125562500000,I2C,0xBB + ACK
0.114149125000000,I2C,0xC0 + ACK
0.114177937500000,I2C,Setup Write to [0xC0] + ACK
0.114201437500000,I2C,0x0F + ACK
0.114225000000000,I2C,0x00 + ACK
0.114248500000000,I2C,0x4F + ACK
0.114272062500000,I2C,0x80 + ACK
0.114295562500000,I2C,0x6F + ACK
0.114319125000000,I2C,0x80 + ACK
0.114342687500000,I2C,0x80 + ACK
0.114366187500000,I2C,0x80 + ACK
0.114389750000000,I2C,0x80 + ACK
0.114413250000000,I2C,0x80 + ACK
0.114436812500000,I2C,0xAA + ACK
0.114460312500000,I2C,0xFF + ACK
0.114483875000000,I2C,0xF4 + ACK
0.114507375000000,I2C,0x24 + ACK
0.114530937500000,I2C,0x00 + ACK
0.114554500000000,I2C,0x0D + ACK
0.114578000000000,I2C,0x6B + ACK
0.114601562500000,I2C,0x00 + ACK
0.114625062500000,I2C,0x05 + ACK
0.114648625000000,I2C,0x73 + ACK
0.114672125000000,I2C,0xF4 + ACK
0.114695687500000,I2C,0x24 + ACK
0.114719187500000,I2C,0x00 + ACK
0.114742750000000,I2C,0x0D + ACK
0.114766312500000,I2C,0x6A + ACK
0.114789812500000,I2C,0x00 + ACK
0.114813375000000,I2C,0xE0 + ACK
0.114836875000000,I2C,0x98 + ACK
0.114860437500000,I2C,0x00 + ACK
0.114883937500000,I2C,0x01 + ACK
0.114907500000000,I2C,0x0C + ACK
0.114931062500000,I2C,0x00 + ACK
0.114954562500000,I2C,0x00 + ACK
0.114978125000000,I2C,0x00 + ACK
0.115001625000000,I2C,0x00 + ACK
0.115025187500000,I2C,0x00 + ACK
0.115048687500000,I2C,0x00 + ACK
0.115072250000000,I2C,0x00 + ACK
0.115095812500000,I2C,0x00 + ACK
0.115119312500000,I2C,0x00 + ACK
0.115142875000000,I2C,0x00 + ACK
0.115166375000000,I2C,0x00 + ACK
0.115189937500000,I2C,0x00 + ACK
0.115213437500000,I2C,0x00 + ACK
0.115237000000000,I2C,0x00 + ACK
0.115260562500000,I2C,0x01 + ACK
0.115284062500000,I2C,0x0C + ACK
0.115307625000000,I2C,0x00 + ACK
0.115331125000000,I2C,0x00 + ACK
0.115354687500000,I2C,0x00 + ACK
0.115383500000000,I2C,Setup Write to [0xC0] + ACK
0.115407000000000,I2C,0xB1 + ACK
0.115430562500000,I2C,0xAC + ACK
0.115459375000000,I2C,Setup Write to [0xC0] + ACK
0.115482875000000,I2C,0x03 + ACK
0.115506437500000,I2C,0xFA + ACK
0.120198625000000,I2C,Setup Write to [0xC0] + ACK
0.120222125000000,I2C,0x03 + ACK
0.120245687500000,I2C,0xFF + ACK
0.120274500000000,I2C,Setup Write to [0xC0] + ACK
0.120298000000000,I2C,0xBB + ACK
0.120321562500000,I2C,0xC0 + ACK
0.120350375000000,I2C,Setup Write to [0xC0] + ACK
0.120373875000000,I2C,0x0F + ACK
0.120397437500000,I2C,0x00 + ACK
0.120421000000000,I2C,0x4F + ACK
0.120444500000000,I2C,0x80 + ACK
0.120468062500000,I2C,0x6F + ACK
0.120491562500000,I2C,0x80 + ACK
0.120515125000000,I2C,0x80 + ACK
0.120538625000000,I2C,0x80 + ACK
0.120562187500000,I2C,0x80 + ACK
0.120585687500000,I2C,0x80 + ACK
0.120609250000000,I2C,0xAA + ACK
0.120632812500000,I2C,0xFF + ACK
0.120656312500000,I2C,0x3D + ACK
0.120679875000000,I2C,0x09 + ACK
0.120703375000000,I2C,0x00 + ACK
0.120726937500000,I2C,0x0D + ACK
0.120750500000000,I2C,0x7A + ACK
0.120774000000000,I2C,0x00 + ACK
0.120797562500000,I2C,0x17 + ACK
